date Mon May 11 10:53:06.365 AM 2026
base hex timestamps absolute
// version 7.0.0
0.265000 1  74c             Tx   d 8 02 10 01 aa aa aa aa aa
0.265300 1  75c             Rx   d 8 02 50 01 00 00 00 00 00
0.266600 1  74c             Tx   d 8 02 10 03 aa aa aa aa aa
0.267000 1  75c             Rx   d 8 02 50 03 00 00 00 00 00
0.268700 1  74c             Tx   d 8 02 27 01 aa aa aa aa aa
0.269000 1  75c             Rx   d 8 06 67 01 e9 51 41 c4 00
0.307600 1  74c             Tx   d 8 06 27 02 bb fb e3 6e aa
0.307900 1  75c             Rx   d 8 02 67 02 00 00 00 00 00
0.309300 1  74c             Tx   d 8 04 31 01 ff fd aa aa aa
0.309700 1  75c             Rx   d 8 06 71 01 ff fd 01 0b 00
0.311600 1  74c             Tx   d 8 02 85 02 aa aa aa aa aa
0.311900 1  75c             Rx   d 8 02 c5 02 00 00 00 00 00
0.313300 1  74c             Tx   d 8 02 10 02 aa aa aa aa aa
0.313700 1  75c             Rx   d 8 02 50 02 00 00 00 00 00
0.315300 1  74c             Tx   d 8 02 27 03 aa aa aa aa aa
0.315700 1  75c             Rx   d 8 06 67 03 a8 d7 9e db 00
0.350200 1  74c             Tx   d 8 06 27 04 dd 11 14 1e aa
0.350600 1  75c             Rx   d 8 02 67 04 00 00 00 00 00
0.351900 1  74c             Tx   d 8 05 2e f1 5a 55 55 aa aa
0.352300 1  75c             Rx   d 8 03 6e f1 5a 00 00 00 00
0.353900 1  74c             Tx   d 8 06 31 01 ff 00 00 17 aa
0.553500 1  75c             Rx   d 8 06 71 01 ff 00 17 01 00
0.605400 1  74c             Tx   d 8 06 31 01 ff 00 00 18 aa
0.765500 1  7df             Tx   d 8 02 3e 80 aa aa aa aa aa
0.805000 1  75c             Rx   d 8 06 71 01 ff 00 18 01 00
0.856800 1  74c             Tx   d 8 06 31 01 ff 00 00 19 aa
1.056500 1  75c             Rx   d 8 06 71 01 ff 00 19 01 00
1.109000 1  74c             Tx   d 8 06 31 01 ff 00 00 1a aa
1.308600 1  75c             Rx   d 8 06 71 01 ff 00 1a 01 00
1.406100 1  74c             Tx   d 8 10 0b 34 00 44 80 10 00
1.406400 1  75c             Rx   d 8 30 00 01 00 00 00 00 00
1.408100 1  74c             Tx   d 8 21 00 00 00 00 12 aa aa
1.408500 1  75c             Rx   d 8 03 74 10 80 00 00 00 00
1.409500 1  74c             Tx   d 8 10 14 36 01 73 64 68 20
1.409800 1  75c             Rx   d 8 30 00 01 00 00 00 00 00
1.411700 1  74c             Tx   d 8 21 73 74 68 a0 03 65 68
1.413200 1  74c             Tx   d 8 22 ca 0b c3 00 30 00 90
1.413500 1  75c             Rx   d 8 04 76 01 73 64 00 00 00
1.414100 1  74c             Tx   d 8 01 37 aa aa aa aa aa aa
1.414500 1  75c             Rx   d 8 01 77 00 00 00 00 00 00
1.416100 1  74c             Tx   d 8 10 0b 34 00 44 80 10 00
1.416400 1  75c             Rx   d 8 30 00 01 00 00 00 00 00
1.418100 1  74c             Tx   d 8 21 20 00 00 00 0c aa aa
1.418500 1  75c             Rx   d 8 03 74 10 80 00 00 00 00
1.420500 1  74c             Tx   d 8 10 0e 36 01 91 00 01 f8
1.420800 1  75c             Rx   d 8 30 00 01 00 00 00 00 00
1.422700 1  74c             Tx   d 8 21 d9 ff f4 12 dc 0f 00
1.424700 1  74c             Tx   d 8 22 90 aa aa aa aa aa aa
1.425100 1  75c             Rx   d 8 04 76 01 91 00 00 00 00
1.427200 1  74c             Tx   d 8 01 37 aa aa aa aa aa aa
1.427600 1  75c             Rx   d 8 01 77 00 00 00 00 00 00
1.429400 1  74c             Tx   d 8 10 0b 34 00 44 80 10 00
1.429700 1  75c             Rx   d 8 30 00 01 00 00 00 00 00
1.431300 1  74c             Tx   d 8 21 30 00 00 7a 06 aa aa
1.431600 1  75c             Rx   d 8 03 74 10 80 00 00 00 00
1.437400 1  74c             Tx   d 8 10 80 36 01 82 0c 82 2d
1.437700 1  75c             Rx   d 8 30 00 01 00 00 00 00 00
1.439200 1  74c             Tx   d 8 21 3c 13 07 57 ff cf 87
1.440700 1  74c             Tx   d 8 22 55 bf df ce 57 46 05
1.442200 1  74c             Tx   d 8 23 46 04 8b 14 80 40 8b
1.443700 1  74c             Tx   d 8 24 05 a0 50 ce 77 46 07
1.445100 1  74c             Tx   d 8 25 46 06 8b 16 80 60 8b
1.446600 1  74c             Tx   d 8 26 07 a0 70 82 02 82 03
1.448100 1  74c             Tx   d 8 27 82 00 82 01 3a 26 0b
1.449600 1  74c             Tx   d 8 28 27 00 f2 6e 02 3c 4f
1.451100 1  74c             Tx   d 8 29 0b 64 30 f1 0b 75 00
1.452600 1  74c             Tx   d 8 2a f2 0b 75 a0 f2 6e 04
1.454100 1  74c             Tx   d 8 2b 02 40 02 51 3c 45 3a
1.455500 1  74c             Tx   d 8 2c 64 0b 75 00 f2 6e 03
1.457000 1  74c             Tx   d 8 2d 82 12 3c 3f 3b 00 04
1.458500 1  74c             Tx   d 8 2e e0 0b 60 30 f1 0b 71
1.460100 1  74c             Tx   d 8 2f 00 f2 0b 71 a0 f2 de
1.462000 1  74c             Tx   d 8 20 10 87 55 9f ff 06 11
1.463500 1  74c             Tx   d 8 21 67 01 80 1f 8b 1f e0
1.465000 1  74c             Tx   d 8 22 06 02 48 aa aa aa aa
1.465800 1  75c             Rx   d 8 04 76 01 82 0c 00 00 00
1.467400 1  74c             Tx   d 8 10 80 36 02 02 59 06 15
1.467700 1  75c             Rx   d 8 30 00 01 00 00 00 00 00
1.469400 1  74c             Tx   d 8 21 67 45 80 5f 06 14 c2
1.470900 1  74c             Tx   d 8 22 fe 3c eb 02 84 02 95
1.472400 1  74c             Tx   d 8 23 06 f0 67 10 1f 00 06
1.473900 1  74c             Tx   d 8 24 f1 c2 1e 82 08 7a e8
1.475400 1  74c             Tx   d 8 25 6e 1d 87 55 9f ff 06
1.477000 1  74c             Tx   d 8 26 11 67 01 80 1f 8b 1f
1.478400 1  74c             Tx   d 8 27 e0 06 0b 60 c0 a0 0b
1.480000 1  74c             Tx   d 8 28 71 d0 b0 07 bb 9f ff
1.481400 1  74c             Tx   d 8 29 06 15 67 45 80 5f 06
1.483000 1  74c             Tx   d 8 2a 14 06 13 67 23 80 3f
1.484400 1  74c             Tx   d 8 2b 8b 1f e0 26 6e 03 02
1.486000 1  74c             Tx   d 8 2c a0 02 b1 c2 18 3f e8
1.488000 1  74c             Tx   d 8 2d e6 7f 76 c7 46 03 46
1.489500 1  74c             Tx   d 8 2e 02 8b 12 80 20 8b 03
1.491300 1  74c             Tx   d 8 2f a0 30 df 2d 0b 00 07
1.492800 1  74c             Tx   d 8 20 1d e0 ff 76 f7 46 01
1.494400 1  74c             Tx   d 8 21 46 00 8b 10 80 00 8b
1.495900 1  74c             Tx   d 8 22 01 a0 10 aa aa aa aa
1.496700 1  75c             Rx   d 8 04 76 02 02 59 00 00 00
1.498400 1  74c             Tx   d 8 10 80 36 03 00 90 91 00
1.498700 1  75c             Rx   d 8 30 00 01 00 00 00 00 00
1.500300 1  74c             Tx   d 8 21 00 27 d9 22 3c 20 09
1.501800 1  74c             Tx   d 8 22 26 40 09 00 70 6d 00
1.503300 1  74c             Tx   d 8 23 58 30 6d 00 04 05 91
1.504700 1  74c             Tx   d 8 24 20 00 ff 39 ff 04 c8
1.506200 1  74c             Tx   d 8 25 37 0f e1 f3 5e 1e 91
1.507700 1  74c             Tx   d 8 26 20 00 ff 39 ff 04 c8
1.509200 1  74c             Tx   d 8 27 16 07 5e 58 91 00 00
1.510800 1  74c             Tx   d 8 28 f7 d9 ff 00 00 da 01
1.512200 1  74c             Tx   d 8 29 34 ff 3c 26 91 20 00
1.513800 1  74c             Tx   d 8 2a ff 39 ff 04 c8 37 0f
1.515200 1  74c             Tx   d 8 2b 61 f3 5e 1e 91 20 00
1.516700 1  74c             Tx   d 8 2c ff 39 ff 04 c8 16 07
1.518200 1  74c             Tx   d 8 2d 5e 38 91 00 00 f7 d9
1.519700 1  74c             Tx   d 8 2e ff 00 00 da 02 34 ff
1.521200 1  74c             Tx   d 8 2f 3c 12 91 20 00 ff 39
1.522700 1  74c             Tx   d 8 20 ff 04 c8 ae 7d 91 20
1.524200 1  74c             Tx   d 8 21 00 ff 39 ff 04 c8 16
1.525700 1  74c             Tx   d 8 22 07 ee 07 aa aa aa aa
1.526500 1  75c             Rx   d 8 04 76 03 00 90 00 00 00
1.528200 1  74c             Tx   d 8 10 80 36 04 91 00 00 f7
1.528500 1  75c             Rx   d 8 30 00 01 00 00 00 00 00
1.530100 1  74c             Tx   d 8 21 d9 ff 00 00 da 00 34
1.531600 1  74c             Tx   d 8 22 ff 91 20 00 ff 39 ff
1.533100 1  74c             Tx   d 8 23 04 c8 37 0f e1 f3 5e
1.534600 1  74c             Tx   d 8 24 17 91 20 00 ff 39 ff
1.536100 1  74c             Tx   d 8 25 04 c8 16 07 1e 5e 91
1.537600 1  74c             Tx   d 8 26 20 00 ff 39 ff 04 c8
1.539000 1  74c             Tx   d 8 27 37 0f 61 f3 de 12 91
1.540600 1  74c             Tx   d 8 28 20 00 ff 39 ff 04 c8
1.542100 1  74c             Tx   d 8 29 16 07 5e 3c 91 20 00
1.543600 1  74c             Tx   d 8 2a ff 19 ff 00 c8 3b e0
1.545000 1  74c             Tx   d 8 2b fb 0f 26 0f 91 20 00
1.546500 1  74c             Tx   d 8 2c ff 59 ff 00 c8 3c 01
1.548000 1  74c             Tx   d 8 2d 00 90 d9 aa a8 0f 91
1.549500 1  74c             Tx   d 8 2e 10 01 f8 d9 ff 30 b8
1.551000 1  74c             Tx   d 8 2f 09 f4 38 29 6d 00 23
1.552400 1  74c             Tx   d 8 20 12 91 10 01 f8 d9 ff
1.554000 1  74c             Tx   d 8 21 30 b8 09 f4 00 39 6d
1.555400 1  74c             Tx   d 8 22 00 1b 12 aa aa aa aa
1.556200 1  75c             Rx   d 8 04 76 04 91 00 00 00 00
1.557900 1  74c             Tx   d 8 10 80 36 05 82 24 6d 00
1.558200 1  75c             Rx   d 8 30 00 01 00 00 00 00 00
1.559900 1  74c             Tx   d 8 21 a8 21 82 09 82 0a 3c
1.561500 1  74c             Tx   d 8 22 29 53 8a 20 f0 91 10
1.563400 1  74c             Tx   d 8 23 01 f8 d9 ff 08 88 10
1.564800 1  74c             Tx   d 8 24 ff 54 f8 82 0b 3c 14
1.566300 1  74c             Tx   d 8 25 da 20 03 fb 0a f8 60
1.567800 1  74c             Tx   d 8 26 f4 da 20 91 10 01 f8
1.569300 1  74c             Tx   d 8 27 d9 ff 30 b8 09 f0 38
1.570800 1  74c             Tx   d 8 28 29 03 f9 0a 40 3b 00
1.572300 1  74c             Tx   d 8 29 02 50 6d 00 b6 13 c2
1.573800 1  74c             Tx   d 8 2a 19 c2 1b 53 8a 20 f0
1.575300 1  74c             Tx   d 8 2b 91 10 01 f8 d9 ff 08
1.576800 1  74c             Tx   d 8 2c 88 10 ff 48 1f 3f fb
1.578300 1  74c             Tx   d 8 2d e5 ff c2 1a 91 10 01
1.579700 1  74c             Tx   d 8 2e f8 d9 ff 4c 48 54 ff
1.581200 1  74c             Tx   d 8 2f 3f fa d3 ff 91 00 01
1.582700 1  74c             Tx   d 8 20 f8 d9 ff b8 87 49 ff
1.584200 1  74c             Tx   d 8 21 00 0a 49 a2 00 0a c5
1.585700 1  74c             Tx   d 8 22 04 33 70 aa aa aa aa
1.586500 1  75c             Rx   d 8 04 76 05 82 24 00 00 00
1.588100 1  74c             Tx   d 8 10 80 36 06 44 ff 64 2f
1.588400 1  75c             Rx   d 8 30 00 01 00 00 00 00 00
1.590100 1  74c             Tx   d 8 21 fc 4e 82 00 91 10 01
1.591600 1  74c             Tx   d 8 22 f8 d9 ff 30 b8 09 ff
1.593100 1  74c             Tx   d 8 23 38 29 60 ff 91 10 01
1.594600 1  74c             Tx   d 8 24 28 d9 22 30 b8 09 2f
1.596100 1  74c             Tx   d 8 25 00 19 60 f2 91 10 01
1.597600 1  74c             Tx   d 8 26 48 d9 44 30 b8 09 4f
1.599100 1  74c             Tx   d 8 27 1c 29 c2 cf 60 f4 54
1.600600 1  74c             Tx   d 8 28 ff 54 21 7e 14 b0 4f
1.602100 1  74c             Tx   d 8 29 b0 42 3c 0e c2 10 3b
1.603600 1  74c             Tx   d 8 2a 30 1f f0 3f f0 04 80
1.605000 1  74c             Tx   d 8 2b 3b 30 1f 00 53 40 20
1.606500 1  74c             Tx   d 8 2c f0 10 a5 f4 52 b0 4f
1.608000 1  74c             Tx   d 8 2d b0 42 01 24 30 f4 ee
1.609500 1  74c             Tx   d 8 2e eb 19 af 4c f0 ee 16
1.611000 1  74c             Tx   d 8 2f 3b 50 62 f0 9b 4f 02
1.612500 1  74c             Tx   d 8 20 f0 59 af 50 f0 da 00
1.614100 1  74c             Tx   d 8 21 59 af 54 f0 7b 00 f0
1.615900 1  74c             Tx   d 8 22 4a 6d 00 aa aa aa aa
1.616800 1  75c             Rx   d 8 04 76 06 44 ff 00 00 00
1.618500 1  74c             Tx   d 8 10 80 36 07 f7 10 7b 00
1.618800 1  75c             Rx   d 8 30 00 01 00 00 00 00 00
1.620500 1  74c             Tx   d 8 21 f0 4a d9 a4 50 f0 3b
1.621900 1  74c             Tx   d 8 22 80 00 50 6d 00 50 13
1.623700 1  74c             Tx   d 8 23 00 90 da 00 82 30 ee
1.625500 1  74c             Tx   d 8 24 0c 3c 01 91 00 80 ff
1.627100 1  74c             Tx   d 8 25 19 ff 10 02 82 11 0f
1.629100 1  74c             Tx   d 8 26 01 10 10 26 1f ee f8
1.631000 1  74c             Tx   d 8 27 3c 02 3c 04 0d 00 80
1.632400 1  74c             Tx   d 8 28 04 3c 01 da 00 82 10
1.633900 1  74c             Tx   d 8 29 ee 0c 3c 01 91 00 80
1.635400 1  74c             Tx   d 8 2a ff 19 ff 10 02 82 11
1.636900 1  74c             Tx   d 8 2b 0f 01 10 10 26 1f ee
1.638400 1  74c             Tx   d 8 2c f8 3c 02 3c 04 0d 00
1.639900 1  74c             Tx   d 8 2d 80 04 3c 01 6d 00 ca
1.641300 1  74c             Tx   d 8 2e 1e 02 24 6d 00 30 1d
1.642800 1  74c             Tx   d 8 2f 91 30 00 ff 39 ff 20
1.644400 1  74c             Tx   d 8 20 16 96 02 91 30 00 ff
1.645800 1  74c             Tx   d 8 21 e9 ff 20 16 3c 01 3c
1.647300 1  74c             Tx   d 8 22 00 6d 00 aa aa aa aa
1.648100 1  75c             Rx   d 8 04 76 07 f7 10 00 00 00
1.649700 1  74c             Tx   d 8 10 80 36 08 ba 1e 02 24
1.650000 1  75c             Rx   d 8 30 00 01 00 00 00 00 00
1.651800 1  74c             Tx   d 8 21 6d 00 ea 1e 00 90 82
1.653300 1  74c             Tx   d 8 22 f0 3c 11 8f 80 1f 10
1.654800 1  74c             Tx   d 8 23 14 4f c6 f0 8f f0 0f
1.656200 1  74c             Tx   d 8 24 f1 53 4f 20 f0 91 10
1.657700 1  74c             Tx   d 8 25 01 f8 d9 ff 50 48 10
1.659200 1  74c             Tx   d 8 26 ff 54 f0 c6 10 b0 14
1.660700 1  74c             Tx   d 8 27 02 4f c2 f4 ee ee 82
1.662200 1  74c             Tx   d 8 28 f2 c6 02 3c 01 00 90
1.663700 1  74c             Tx   d 8 29 3b 40 02 40 6d ff e5
1.665200 1  74c             Tx   d 8 2a ff 3c 01 00 90 54 4f
1.666700 1  74c             Tx   d 8 2b 74 5f 4c 41 6c 51 4c
1.668100 1  74c             Tx   d 8 2c 42 6c 52 4c 43 6c 53
1.669600 1  74c             Tx   d 8 2d 4c 44 6c 54 4c 45 6c
1.671100 1  74c             Tx   d 8 2e 55 09 4f d8 08 ac 5c
1.672600 1  74c             Tx   d 8 2f 09 4f da 08 ac 5d 4c
1.674100 1  74c             Tx   d 8 20 47 6c 57 4c 48 6c 58
1.675600 1  74c             Tx   d 8 21 4c 49 6c 59 00 90 60
1.677100 1  74c             Tx   d 8 22 44 02 54 aa aa aa aa
1.677900 1  75c             Rx   d 8 04 76 08 ba 1e 00 00 00
1.679500 1  74c             Tx   d 8 10 80 36 09 6d ff c6 ff
1.679800 1  75c             Rx   d 8 30 00 01 00 00 00 00 00
1.681500 1  74c             Tx   d 8 21 3c 01 00 90 20 50 49
1.683000 1  74c             Tx   d 8 22 a4 00 0a 6d 00 5e 01
1.684500 1  74c             Tx   d 8 23 df 12 0b 80 da 00 ac
1.686000 1  74c             Tx   d 8 24 ac 58 07 c2 1f 78 07
1.687500 1  74c             Tx   d 8 25 49 a4 00 0a 6d 00 ea
1.689000 1  74c             Tx   d 8 26 01 00 90 91 00 00 f7
1.690500 1  74c             Tx   d 8 27 d9 ff 04 00 54 f2 3c
1.692000 1  74c             Tx   d 8 28 01 00 90 20 50 49 a4
1.693500 1  74c             Tx   d 8 29 00 0a 6d 00 46 01 df
1.695400 1  74c             Tx   d 8 2a 12 05 80 09 a2 24 09
1.696900 1  74c             Tx   d 8 2b 3c 03 82 02 3c 01 00
1.698400 1  74c             Tx   d 8 2c 90 f6 44 7b 20 00 08
1.699900 1  74c             Tx   d 8 2d 3c 03 7b 00 01 08 b7
1.701400 1  74c             Tx   d 8 2e 00 08 fc 7b 00 00 1a
1.702800 1  74c             Tx   d 8 2f a6 1f 8b 0f 02 f0 60
1.704300 1  74c             Tx   d 8 20 fc 8b 00 02 f0 60 ff
1.705900 1  74c             Tx   d 8 21 54 ff 1e f6 8b 00 02
1.707300 1  74c             Tx   d 8 22 f0 60 ff aa aa aa aa
1.708000 1  75c             Rx   d 8 04 76 09 6d ff 00 00 00
1.709800 1  74c             Tx   d 8 10 80 36 0a 54 ff ee 03
1.710100 1  75c             Rx   d 8 30 00 01 00 00 00 00 00
1.711800 1  74c             Tx   d 8 21 1d 00 f9 00 4d c0 e2
1.713300 1  74c             Tx   d 8 22 ff 3c 01 0d 00 40 03
1.714700 1  74c             Tx   d 8 23 00 00 3c 01 6d 00 1c
1.716200 1  74c             Tx   d 8 24 1e 02 28 02 84 6d 00
1.717700 1  74c             Tx   d 8 25 6d 1c 91 00 80 ff 39
1.719200 1  74c             Tx   d 8 26 ff 29 22 96 80 91 00
1.720700 1  74c             Tx   d 8 27 80 ff e9 ff 29 22 91
1.722200 1  74c             Tx   d 8 28 00 80 ff 39 ff 2d 22
1.723700 1  74c             Tx   d 8 29 96 80 91 00 80 ff e9
1.725200 1  74c             Tx   d 8 2a ff 2d 22 02 84 6d 00
1.726700 1  74c             Tx   d 8 2b 23 1e 82 01 4d c0 e1
1.728200 1  74c             Tx   d 8 2c ff 8f 7f 00 21 3c 01
1.729600 1  74c             Tx   d 8 2d 91 30 00 ff d9 ff 00
1.731100 1  74c             Tx   d 8 2e 46 53 c2 20 f0 10 ff
1.732600 1  74c             Tx   d 8 2f 54 f0 37 00 6e 01 8f
1.734100 1  74c             Tx   d 8 20 f0 83 31 3c 01 91 30
1.735600 1  74c             Tx   d 8 21 00 ff d9 ff 00 46 53
1.737100 1  74c             Tx   d 8 22 c2 20 f0 aa aa aa aa
1.737900 1  75c             Rx   d 8 04 76 0a 54 ff 00 00 00
1.739500 1  74c             Tx   d 8 10 80 36 0b 10 ff 54 ff
1.739900 1  75c             Rx   d 8 30 00 01 00 00 00 00 00
1.741600 1  74c             Tx   d 8 21 2e 1b 8f 23 20 f0 96
1.743100 1  74c             Tx   d 8 22 01 54 f0 37 00 70 08
1.744500 1  74c             Tx   d 8 23 8f 00 21 00 a6 f0 74
1.746000 1  74c             Tx   d 8 24 f0 8f 23 20 f0 96 02
1.747500 1  74c             Tx   d 8 25 54 f0 37 00 70 08 8f
1.749000 1  74c             Tx   d 8 26 00 21 00 a6 0f 74 ff
1.750500 1  74c             Tx   d 8 27 3c 01 54 ff 16 01 df
1.752000 1  74c             Tx   d 8 28 1f fe 7f da 00 76 13
1.753500 1  74c             Tx   d 8 29 82 00 3c 02 82 10 37
1.755000 1  74c             Tx   d 8 2a 0f 81 f0 cd 0f 04 09
1.756500 1  74c             Tx   d 8 2b 0d 00 c0 04 91 30 00
1.757900 1  74c             Tx   d 8 2c ff d9 ff 00 46 53 c2
1.759400 1  74c             Tx   d 8 2d 20 f0 10 ff 54 ff 2e
1.761000 1  74c             Tx   d 8 2e 1b 8f 23 20 f0 96 01
1.762400 1  74c             Tx   d 8 2f 54 f0 37 00 70 08 8f
1.763900 1  74c             Tx   d 8 20 00 21 00 a6 0f 74 ff
1.765400 1  74c             Tx   d 8 21 86 23 8f 33 40 f1 54
1.766800 1  74c             Tx   d 8 22 f0 37 00 aa aa aa aa
1.767600 1  75c             Rx   d 8 04 76 0b 10 ff 00 00 00
1.769200 1  74c             Tx   d 8 10 80 36 0c 70 08 8f 00
1.769500 1  75c             Rx   d 8 30 00 01 00 00 00 00 00
1.771300 1  74c             Tx   d 8 21 21 00 a6 0f 74 ff 3c
1.772800 1  74c             Tx   d 8 22 01 54 ff 6f 0f ff 7f
1.774300 1  74c             Tx   d 8 23 0d 00 c0 04 82 01 76
1.775800 1  74c             Tx   d 8 24 17 da 00 96 01 cd 4f
1.777300 1  74c             Tx   d 8 25 20 09 0d 00 c0 04 4d
1.778700 1  74c             Tx   d 8 26 c0 e1 ff 8f 7f 00 21
1.780200 1  74c             Tx   d 8 27 3c 01 91 30 00 ff d9
1.781700 1  74c             Tx   d 8 28 ff 00 46 53 c2 20 f0
1.783200 1  74c             Tx   d 8 29 10 ff 54 f0 37 00 6e
1.784700 1  74c             Tx   d 8 2a 01 8f f0 83 31 3c 01
1.786200 1  74c             Tx   d 8 2b 91 30 00 ff d9 ff 00
1.787700 1  74c             Tx   d 8 2c 46 53 c2 20 f0 10 ff
1.789200 1  74c             Tx   d 8 2d 54 ff 2e 1b 8f 23 20
1.790700 1  74c             Tx   d 8 2e f0 96 01 54 f0 37 00
1.792100 1  74c             Tx   d 8 2f 70 08 8f 00 21 00 a6
1.793700 1  74c             Tx   d 8 20 f0 74 f0 8f 23 20 f0
1.795300 1  74c             Tx   d 8 21 96 02 54 f0 37 00 70
1.797300 1  74c             Tx   d 8 22 08 8f 00 aa aa aa aa
1.798100 1  75c             Rx   d 8 04 76 0c 70 08 00 00 00
1.799500 1  74c             Tx   d 8 10 80 36 0d 21 00 a6 0f
1.799800 1  75c             Rx   d 8 30 00 01 00 00 00 00 00
1.801700 1  74c             Tx   d 8 21 74 ff 3c 01 54 ff 16
1.803600 1  74c             Tx   d 8 22 01 df 1f fe 7f da 00
1.805200 1  74c             Tx   d 8 23 76 13 82 00 3c 02 82
1.806800 1  74c             Tx   d 8 24 10 37 0f 81 f0 cd cf
1.808800 1  74c             Tx   d 8 25 20 09 0d 00 c0 04 91
1.810200 1  74c             Tx   d 8 26 30 00 ff d9 ff 00 46
1.811700 1  74c             Tx   d 8 27 53 c2 20 f0 10 ff 54
1.813200 1  74c             Tx   d 8 28 ff 2e 1b 8f 23 20 f0
1.814700 1  74c             Tx   d 8 29 96 01 54 f0 37 00 70
1.816200 1  74c             Tx   d 8 2a 08 8f 00 21 00 a6 0f
1.817600 1  74c             Tx   d 8 2b 74 ff 86 23 8f 33 40
1.819100 1  74c             Tx   d 8 2c f1 54 f0 37 00 70 08
1.820600 1  74c             Tx   d 8 2d 8f 00 21 00 a6 0f 74
1.822100 1  74c             Tx   d 8 2e ff 3c 01 54 ff 6f 0f
1.823600 1  74c             Tx   d 8 2f ff 7f 0d 00 c0 04 0d
1.825100 1  74c             Tx   d 8 20 00 80 04 0d 00 c0 04
1.826600 1  74c             Tx   d 8 21 2d 0c 00 00 3c 01 3c
1.828100 1  74c             Tx   d 8 22 00 00 90 aa aa aa aa
1.828900 1  75c             Rx   d 8 04 76 0d 21 00 00 00 00
1.830500 1  74c             Tx   d 8 10 80 36 0e 20 50 02 4f
1.830800 1  75c             Rx   d 8 30 00 01 00 00 00 00 00
1.832500 1  74c             Tx   d 8 21 02 58 ee 04 7b 20 00
1.834000 1  74c             Tx   d 8 22 48 3c 03 7b 00 01 48
1.835500 1  74c             Tx   d 8 23 ee 04 7b e0 00 50 3c
1.837000 1  74c             Tx   d 8 24 03 7b 00 01 50 6d ff
1.838500 1  74c             Tx   d 8 25 b4 fe 02 29 49 a4 00
1.840000 1  74c             Tx   d 8 26 0a 6d 00 16 00 df 12
1.841500 1  74c             Tx   d 8 27 13 80 ee 06 89 a9 08
1.843000 1  74c             Tx   d 8 28 09 89 a8 10 09 3c 05
1.844400 1  74c             Tx   d 8 29 89 a9 0c 09 89 a8 14
1.845900 1  74c             Tx   d 8 2a 09 58 07 c2 1f 78 07
1.847400 1  74c             Tx   d 8 2b 49 a4 00 0a 6d 00 9a
1.848900 1  74c             Tx   d 8 2c 00 00 90 20 28 40 4c
1.850400 1  74c             Tx   d 8 2d 91 00 f0 fa 91 00 f0
1.851900 1  74c             Tx   d 8 2e da 49 dd 00 4a 82 08
1.853400 1  74c             Tx   d 8 2f 82 09 54 f0 bb 50 5a
1.854800 1  74c             Tx   d 8 20 fa 9b af a5 f5 7e 07
1.856300 1  74c             Tx   d 8 21 40 f4 6d ff 69 fe 48
1.857800 1  74c             Tx   d 8 22 8f 7e 22 aa aa aa aa
1.858600 1  75c             Rx   d 8 04 76 0e 20 50 00 00 00
1.860500 1  74c             Tx   d 8 10 80 36 0f 82 18 54 d0
1.860800 1  75c             Rx   d 8 30 00 01 00 00 00 00 00
1.862300 1  74c             Tx   d 8 21 bb 50 5a fa 9b af a5
1.863800 1  74c             Tx   d 8 22 f5 7e 0d 49 a5 00 0a
1.865300 1  74c             Tx   d 8 23 40 d4 6d ff 61 fe 49
1.866700 1  74c             Tx   d 8 24 a4 00 0a 6d ff 57 fe
1.868200 1  74c             Tx   d 8 25 58 08 7e 22 82 19 df
1.869700 1  74c             Tx   d 8 26 08 24 00 df 09 22 00
1.871200 1  74c             Tx   d 8 27 48 7f 09 d0 1c 09 3f
1.872700 1  74c             Tx   d 8 28 0f 10 80 3b 80 02 40
1.874200 1  74c             Tx   d 8 29 40 c4 40 f5 6d 00 15
1.875700 1  74c             Tx   d 8 2a 20 49 c4 28 0a 3b 80
1.877200 1  74c             Tx   d 8 2b 02 40 40 d5 6d 00 0e
1.879200 1  74c             Tx   d 8 2c 20 3c 0c 40 d4 40 c5
1.880800 1  74c             Tx   d 8 2d 6d ff 3f fe 49 c4 28
1.882200 1  74c             Tx   d 8 2e 0a 3b 80 02 40 40 d5
1.883700 1  74c             Tx   d 8 2f 6d 00 02 20 82 12 3c
1.885200 1  74c             Tx   d 8 20 1f 76 8e 3b 80 02 40
1.886700 1  74c             Tx   d 8 21 40 c4 40 f5 6d 00 f9
1.888200 1  74c             Tx   d 8 22 1f 49 c5 aa aa aa aa
1.889000 1  75c             Rx   d 8 04 76 0f 82 18 00 00 00
1.890600 1  74c             Tx   d 8 10 80 36 10 28 0a 40 c4
1.890900 1  75c             Rx   d 8 30 00 01 00 00 00 00 00
1.892700 1  74c             Tx   d 8 21 6d ff 2a fe 82 12 3c
1.894200 1  74c             Tx   d 8 22 11 76 9e 40 d4 40 c5
1.895600 1  74c             Tx   d 8 23 6d ff 23 fe 49 c4 28
1.897100 1  74c             Tx   d 8 24 0a 3b 80 02 40 40 d5
1.898600 1  74c             Tx   d 8 25 6d 00 e6 1f 82 12 3c
1.900100 1  74c             Tx   d 8 26 03 82 02 3c 01 00 90
1.901600 1  74c             Tx   d 8 27 20 50 02 48 49 a4 00
1.903100 1  74c             Tx   d 8 28 0a 6d ff 91 ff df 12
1.904600 1  74c             Tx   d 8 29 12 80 89 a8 04 09 da
1.906100 1  74c             Tx   d 8 2a 00 ac ac 58 07 c2 1f
1.907600 1  74c             Tx   d 8 2b 78 07 49 a4 00 0a 6d
1.909100 1  74c             Tx   d 8 2c 00 1b 00 91 00 00 f7
1.910600 1  74c             Tx   d 8 2d d9 ff 04 00 74 f8 00
1.912000 1  74c             Tx   d 8 2e 90 20 50 02 4f 49 a4
1.913500 1  74c             Tx   d 8 2f 00 0a 6d ff 78 ff df
1.915000 1  74c             Tx   d 8 20 12 0c 80 6e 02 5e 19
1.916500 1  74c             Tx   d 8 21 78 09 58 07 c2 1f 78
1.918000 1  74c             Tx   d 8 22 07 49 a4 aa aa aa aa
1.918800 1  75c             Rx   d 8 04 76 10 28 0a 00 00 00
1.920400 1  74c             Tx   d 8 10 80 36 11 00 0a 6d 00
1.920700 1  75c             Rx   d 8 30 00 01 00 00 00 00 00
1.922500 1  74c             Tx   d 8 21 03 00 00 90 6d 00 04
1.923900 1  74c             Tx   d 8 22 00 3c 01 00 90 20 a0
1.925400 1  74c             Tx   d 8 23 40 45 49 a4 00 0a 3b
1.926900 1  74c             Tx   d 8 24 00 05 40 6d 00 a9 1f
1.928400 1  74c             Tx   d 8 25 49 a4 00 0a 6d ff d5
1.930000 1  74c             Tx   d 8 26 fd 89 a2 20 09 49 a4
1.931900 1  74c             Tx   d 8 27 00 0a 49 a5 28 0a 6d
1.933400 1  74c             Tx   d 8 28 ff d3 fd 3b 00 05 80
1.934800 1  74c             Tx   d 8 29 7b 00 f0 4a 6d 00 60
1.936300 1  74c             Tx   d 8 2a 0e da 00 82 10 ee 0c
1.937800 1  74c             Tx   d 8 2b 3c 01 91 00 80 ff 19
1.939300 1  74c             Tx   d 8 2c ff 10 02 82 11 0f 01
1.940800 1  74c             Tx   d 8 2d 10 10 26 1f ee f8 3c
1.942300 1  74c             Tx   d 8 2e 02 3c 04 0d 00 80 04
1.943800 1  74c             Tx   d 8 2f 3c 01 7b 00 f0 4a 49
1.945200 1  74c             Tx   d 8 20 a4 00 0a 02 85 6d 00
1.946700 1  74c             Tx   d 8 21 3f 0f 3b 00 10 40 9b
1.948200 1  74c             Tx   d 8 22 04 f0 4a aa aa aa aa
1.949000 1  75c             Rx   d 8 04 76 11 00 0a 00 00 00
1.950600 1  74c             Tx   d 8 10 80 36 12 49 a4 00 4a
1.950900 1  75c             Rx   d 8 30 00 01 00 00 00 00 00
1.952700 1  74c             Tx   d 8 21 02 85 6d 00 36 0f da
1.954200 1  74c             Tx   d 8 22 00 82 10 ee 0c 3c 01
1.955700 1  74c             Tx   d 8 23 91 00 80 ff 19 ff 10
1.957100 1  74c             Tx   d 8 24 02 82 11 0f 01 10 10
1.958600 1  74c             Tx   d 8 25 26 1f ee f8 3c 02 3c
1.960200 1  74c             Tx   d 8 26 04 0d 00 80 04 3c 01
1.961600 1  74c             Tx   d 8 27 49 a4 10 1a 6d ff 15
1.963100 1  74c             Tx   d 8 28 ff df 12 0d 80 49 a4
1.964600 1  74c             Tx   d 8 29 10 1a 49 a5 00 0a 3b
1.966100 1  74c             Tx   d 8 2a 80 02 40 6d 00 48 1f
1.967600 1  74c             Tx   d 8 2b f6 23 82 12 3c 03 82
1.969100 1  74c             Tx   d 8 2c 02 3c 01 00 90 91 40
1.970600 1  74c             Tx   d 8 2d 00 4f d9 44 00 0a 3b
1.972000 1  74c             Tx   d 8 2e 80 00 40 3b 00 08 50
1.973500 1  74c             Tx   d 8 2f 6d 00 97 16 91 40 00
1.975000 1  74c             Tx   d 8 20 ff d9 ff 00 0a 7b 10
1.976600 1  74c             Tx   d 8 21 00 f0 8f 8f 20 f0 6c
1.978000 1  74c             Tx   d 8 22 f1 3c 01 aa aa aa aa
1.978800 1  75c             Rx   d 8 04 76 12 49 a4 00 00 00
1.980400 1  74c             Tx   d 8 10 80 36 13 00 90 91 00
1.980700 1  75c             Rx   d 8 30 00 01 00 00 00 00 00
1.982400 1  74c             Tx   d 8 21 00 47 d9 44 84 a2 3b
1.984000 1  74c             Tx   d 8 22 40 06 40 82 55 6d 00
1.985400 1  74c             Tx   d 8 23 c3 1c f6 2c 91 40 00
1.986900 1  74c             Tx   d 8 24 ff d9 ff 00 0a da 08
1.988600 1  74c             Tx   d 8 25 82 10 9b 10 00 00 0f
1.990100 1  74c             Tx   d 8 26 f0 10 00 68 10 00 90
1.992000 1  74c             Tx   d 8 27 91 00 00 ff bc f1 6d
1.993500 1  74c             Tx   d 8 28 00 1d 17 91 30 00 ff
1.995100 1  74c             Tx   d 8 29 39 ff 35 06 16 0f 4b
1.997100 1  74c             Tx   d 8 2a 0f 41 f1 4b f2 51 f0
1.998500 1  74c             Tx   d 8 2b 3c 01 3c 01 4b 0f 31
2.000000 1  74c             Tx   d 8 2c 21 91 00 00 f7 d9 ff
2.001500 1  74c             Tx   d 8 2d 2c 70 bb 00 10 fe 9b
2.003000 1  74c             Tx   d 8 2e 5f 5f f0 4b f2 01 02
2.004500 1  74c             Tx   d 8 2f 0b 00 00 08 89 f0 40
2.006000 1  74c             Tx   d 8 20 09 91 00 00 f7 d9 ff
2.007500 1  74c             Tx   d 8 21 2c 70 bb 00 68 f9 9b
2.008900 1  74c             Tx   d 8 22 8f 09 f0 aa aa aa aa
2.009700 1  75c             Rx   d 8 04 76 13 00 90 00 00 00
2.011400 1  74c             Tx   d 8 10 80 36 14 4b f2 01 02
2.011700 1  75c             Rx   d 8 30 00 01 00 00 00 00 00
2.013400 1  74c             Tx   d 8 21 0b 00 00 08 89 f0 48
2.014900 1  74c             Tx   d 8 22 09 91 00 00 f7 d9 ff
2.016400 1  74c             Tx   d 8 23 2c 70 3b 90 d0 f3 06
2.017900 1  74c             Tx   d 8 24 6f 4b f2 01 02 0b 00
2.019400 1  74c             Tx   d 8 25 00 08 89 f0 50 09 91
2.020900 1  74c             Tx   d 8 26 00 00 f7 d9 ff 2c 70
2.022300 1  74c             Tx   d 8 27 3b 50 c3 f0 06 5f 4b
2.023900 1  74c             Tx   d 8 28 f2 01 02 0b 00 00 08
2.025300 1  74c             Tx   d 8 29 89 f0 58 09 91 00 00
2.026800 1  74c             Tx   d 8 2a f7 d9 ff 2c 70 3b 00
2.028300 1  74c             Tx   d 8 2b 71 f2 4b f2 01 02 0b
2.029800 1  74c             Tx   d 8 2c 00 00 08 89 f0 60 09
2.031300 1  74c             Tx   d 8 2d 91 00 00 f7 d9 ff 2c
2.032800 1  74c             Tx   d 8 2e 70 3b 80 3e f0 4b f2
2.034200 1  74c             Tx   d 8 2f 01 02 0b 00 00 08 89
2.035700 1  74c             Tx   d 8 20 f0 68 09 91 00 00 f7
2.037200 1  74c             Tx   d 8 21 d9 ff 2c 70 da 64 4b
2.038700 1  74c             Tx   d 8 22 f2 01 02 aa aa aa aa
2.039500 1  75c             Rx   d 8 04 76 14 4b f2 00 00 00
2.041100 1  74c             Tx   d 8 10 80 36 15 0b 00 00 08
2.041400 1  75c             Rx   d 8 30 00 01 00 00 00 00 00
2.043200 1  74c             Tx   d 8 21 89 f0 70 09 91 00 00
2.044700 1  74c             Tx   d 8 22 f7 d9 ff 2c 70 da 0a
2.046200 1  74c             Tx   d 8 23 4b f2 01 02 0b 00 00
2.047600 1  74c             Tx   d 8 24 08 89 f0 78 09 91 00
2.049100 1  74c             Tx   d 8 25 00 f7 d9 ff 2c 70 53
2.050600 1  74c             Tx   d 8 26 12 20 f0 0b f0 00 08
2.052100 1  74c             Tx   d 8 27 89 f0 40 19 91 00 00
2.053700 1  74c             Tx   d 8 28 f7 d9 ff 2c 70 53 a2
2.055700 1  74c             Tx   d 8 29 20 f0 0b f0 00 08 89
2.057600 1  74c             Tx   d 8 2a f0 48 19 91 00 00 f7
2.059600 1  74c             Tx   d 8 2b d9 ff 2c 70 53 42 26
2.061200 1  74c             Tx   d 8 2c f0 0b f0 00 08 89 f0
2.062700 1  74c             Tx   d 8 2d 50 19 00 90 91 10 01
2.064100 1  74c             Tx   d 8 2e f8 d9 ff 28 98 09 f0
2.065600 1  74c             Tx   d 8 2f 40 09 0b 04 10 f1 0b
2.067100 1  74c             Tx   d 8 20 15 80 f2 ee 08 91 10
2.068600 1  74c             Tx   d 8 21 01 f8 d9 ff 28 98 09
2.070100 1  74c             Tx   d 8 22 f2 40 09 aa aa aa aa
2.070900 1  75c             Rx   d 8 04 76 15 0b 00 00 00 00
2.072600 1  74c             Tx   d 8 10 80 36 16 3c 27 4d c0
2.072900 1  75c             Rx   d 8 30 00 01 00 00 00 00 00
2.074600 1  74c             Tx   d 8 21 e2 ff 37 0f e1 f7 8b
2.076100 1  74c             Tx   d 8 22 0f 20 f2 3c 01 0d 00
2.077600 1  74c             Tx   d 8 23 40 03 00 00 3c 01 3c
2.079500 1  74c             Tx   d 8 24 01 85 f0 10 00 82 03
2.081000 1  74c             Tx   d 8 25 02 02 85 f1 2c 00 82
2.082500 1  74c             Tx   d 8 26 00 a6 20 a6 31 3c 01
2.084000 1  74c             Tx   d 8 27 91 10 01 f8 d9 ff 28
2.085400 1  74c             Tx   d 8 28 98 09 f2 40 09 26 20
2.086900 1  74c             Tx   d 8 29 26 31 6e 03 0d 00 00
2.088400 1  74c             Tx   d 8 2a 03 3c 01 0b 40 40 20
2.089900 1  74c             Tx   d 8 2b 0b 51 50 30 3c 01 3c
2.091400 1  74c             Tx   d 8 2c 01 91 10 01 f8 d9 ff
2.092900 1  74c             Tx   d 8 2d 28 98 09 f0 40 09 0b
2.094400 1  74c             Tx   d 8 2e 02 10 f1 0b 13 80 f2
2.095800 1  74c             Tx   d 8 2f ee 03 da 00 3c 29 4d
2.097300 1  74c             Tx   d 8 20 c0 e2 ff 37 0f e1 f7
2.098800 1  74c             Tx   d 8 21 8b 0f 20 f2 3c 01 0d
2.100300 1  74c             Tx   d 8 22 00 40 03 aa aa aa aa
2.101100 1  75c             Rx   d 8 04 76 16 3c 27 00 00 00
2.102700 1  74c             Tx   d 8 10 80 36 17 00 00 3c 01
2.103000 1  75c             Rx   d 8 30 00 01 00 00 00 00 00
2.104800 1  74c             Tx   d 8 21 3c 01 85 f0 10 00 82
2.106300 1  74c             Tx   d 8 22 05 02 04 85 f1 2c 00
2.107800 1  74c             Tx   d 8 23 82 00 a6 40 a6 51 3c
2.109300 1  74c             Tx   d 8 24 01 91 10 01 f8 d9 ff
2.111300 1  74c             Tx   d 8 25 28 98 09 f4 40 09 26
2.112700 1  74c             Tx   d 8 26 40 26 51 6e 03 0d 00
2.114200 1  74c             Tx   d 8 27 00 03 3c 01 0b 20 50
2.115700 1  74c             Tx   d 8 28 f1 0b 31 00 f2 0b 13
2.117200 1  74c             Tx   d 8 29 90 f2 3c 01 6e ca 00
2.118700 1  74c             Tx   d 8 2a 90 20 18 91 00 00 47
2.120200 1  74c             Tx   d 8 2b d9 44 04 90 49 a5 00
2.121600 1  74c             Tx   d 8 2c 0a 6d 00 e3 1e df 02
2.123100 1  74c             Tx   d 8 2d 2b 00 09 af c0 08 3b
2.124600 1  74c             Tx   d 8 2e f0 7d 00 3e 06 09 af
2.126100 1  74c             Tx   d 8 2f c0 08 3b c0 74 00 fe
2.127600 1  74c             Tx   d 8 20 01 91 00 00 f7 d9 ff
2.129100 1  74c             Tx   d 8 21 30 00 54 ff 6e 0a 91
2.130600 1  74c             Tx   d 8 22 00 00 f7 aa aa aa aa
2.131400 1  75c             Rx   d 8 04 76 17 00 00 00 00 00
2.133000 1  74c             Tx   d 8 10 80 36 18 d9 ff 30 00
2.133300 1  75c             Rx   d 8 30 00 01 00 00 00 00 00
2.135000 1  74c             Tx   d 8 21 d4 ff 49 a4 00 0a 2d
2.136500 1  74c             Tx   d 8 22 0f 00 00 3c 10 91 00
2.138000 1  74c             Tx   d 8 23 00 f7 d9 ff 2c 00 54
2.139500 1  74c             Tx   d 8 24 ff 6e 0a 91 00 00 f7
2.141000 1  74c             Tx   d 8 25 d9 ff 2c 00 d4 ff 49
2.142500 1  74c             Tx   d 8 26 a4 00 0a 2d 0f 00 00
2.144100 1  74c             Tx   d 8 27 91 00 00 47 d9 44 3c
2.146000 1  74c             Tx   d 8 28 90 49 a5 0c 0a 6d 00
2.147400 1  74c             Tx   d 8 29 b0 1e 76 25 49 a4 0c
2.148900 1  74c             Tx   d 8 2a 0a 6d 00 76 00 00 90
2.150400 1  74c             Tx   d 8 2b 82 00 3c 1b 53 c0 20
2.151900 1  74c             Tx   d 8 2c f0 91 00 00 f7 d9 ff
2.153400 1  74c             Tx   d 8 2d 08 00 10 ff 09 ff c2
2.154900 1  74c             Tx   d 8 2e 08 3b f0 7d 10 3e 1d
2.156400 1  74c             Tx   d 8 2f 53 c0 20 f0 91 00 00
2.157800 1  74c             Tx   d 8 20 f7 d9 ff 08 00 10 ff
2.159300 1  74c             Tx   d 8 21 09 ff c2 08 3b c0 74
2.160900 1  74c             Tx   d 8 22 10 7e 12 aa aa aa aa
2.161700 1  75c             Rx   d 8 04 76 18 d9 ff 00 00 00
2.163300 1  74c             Tx   d 8 10 80 36 19 3c 01 c2 10
2.163600 1  75c             Rx   d 8 30 00 01 00 00 00 00 00
2.165300 1  74c             Tx   d 8 21 91 10 01 f8 d9 ff 90
2.166800 1  74c             Tx   d 8 22 48 09 ff c0 08 3f f0
2.168300 1  74c             Tx   d 8 23 e0 7f 82 00 3c 3d 53
2.169800 1  74c             Tx   d 8 24 c0 20 f0 91 00 00 f7
2.171300 1  74c             Tx   d 8 25 d9 ff 20 00 10 ff 09
2.172800 1  74c             Tx   d 8 26 ff c2 08 3b c0 75 10
2.174300 1  74c             Tx   d 8 27 7e 12 3c 2f f6 4b 53
2.175700 1  74c             Tx   d 8 28 c0 20 f0 91 00 00 f7
2.177300 1  74c             Tx   d 8 29 d9 ff 20 00 10 ff da
2.179200 1  74c             Tx   d 8 2a 00 2c f4 3c 24 df 14
2.180700 1  74c             Tx   d 8 2b 0c 80 53 c0 20 f0 91
2.182200 1  74c             Tx   d 8 2c 00 00 f7 d9 ff 20 00
2.183600 1  74c             Tx   d 8 2d 10 ff da 01 2c f4 3c
2.185100 1  74c             Tx   d 8 2e 18 df 24 0c 80 53 c0
2.186600 1  74c             Tx   d 8 2f 20 f0 91 00 00 f7 d9
2.188100 1  74c             Tx   d 8 20 ff 20 00 10 ff da 02
2.189600 1  74c             Tx   d 8 21 2c f4 3c 0c df 34 0b
2.191100 1  74c             Tx   d 8 22 80 53 c0 aa aa aa aa
2.191800 1  75c             Rx   d 8 04 76 19 3c 01 00 00 00
2.194000 1  74c             Tx   d 8 10 80 36 1a 20 f0 91 00
2.194300 1  75c             Rx   d 8 30 00 01 00 00 00 00 00
2.196000 1  74c             Tx   d 8 21 00 f7 d9 ff 20 00 10
2.197500 1  74c             Tx   d 8 22 ff da 03 2c f4 c2 10
2.199000 1  74c             Tx   d 8 23 91 10 01 f8 d9 ff 92
2.200500 1  74c             Tx   d 8 24 48 09 ff c0 08 3f f0
2.202000 1  74c             Tx   d 8 25 be 7f 00 90 40 45 91
2.203500 1  74c             Tx   d 8 26 00 00 47 d9 44 3c 90
2.205000 1  74c             Tx   d 8 27 6d 00 15 1e 00 90 20
2.206500 1  74c             Tx   d 8 28 10 40 4f 09 f4 c0 08
2.208000 1  74c             Tx   d 8 29 6d 00 5b 00 bf 02 56
2.209400 1  74c             Tx   d 8 2a 00 53 c2 20 f0 91 00
2.211000 1  74c             Tx   d 8 2b 00 27 d9 22 20 00 10
2.212400 1  74c             Tx   d 8 2c 22 0c 24 1e 3a 53 c2
2.213900 1  74c             Tx   d 8 2d 20 f0 91 00 00 27 d9
2.215400 1  74c             Tx   d 8 2e 22 20 00 10 22 0c 24
2.216900 1  74c             Tx   d 8 2f 5e 13 82 12 3c 43 91
2.218400 1  74c             Tx   d 8 20 00 00 27 d9 22 b8 70
2.219800 1  74c             Tx   d 8 21 49 24 3c 0a 6d 00 01
2.221300 1  74c             Tx   d 8 22 14 76 23 aa aa aa aa
2.222100 1  75c             Rx   d 8 04 76 1a 20 f0 00 00 00
2.223800 1  74c             Tx   d 8 10 80 36 1b 82 02 3c 38
2.224100 1  75c             Rx   d 8 30 00 01 00 00 00 00 00
2.225800 1  74c             Tx   d 8 21 08 20 08 3f 8f 8f 20
2.227300 1  74c             Tx   d 8 22 f0 a6 f0 08 4f 8f 0f
2.228800 1  74c             Tx   d 8 23 21 f0 a6 f0 08 5f 8f
2.230300 1  74c             Tx   d 8 24 8f 21 f0 a6 f0 08 61
2.231800 1  74c             Tx   d 8 25 08 7f 8f 8f 20 f0 a6
2.233300 1  74c             Tx   d 8 26 f1 08 8f 8f 0f 21 f0
2.234800 1  74c             Tx   d 8 27 a6 f1 08 9f 8f 8f 21
2.236200 1  74c             Tx   d 8 28 f0 a6 f1 49 a2 00 0a
2.237700 1  74c             Tx   d 8 29 09 f2 c0 08 da 08 74
2.239200 1  74c             Tx   d 8 2a 22 89 a0 06 09 89 a1
2.240700 1  74c             Tx   d 8 2b 0a 09 2c a4 da 00 2c
2.242200 1  74c             Tx   d 8 2c ae 3c 01 91 00 00 f7
2.243800 1  74c             Tx   d 8 2d d9 ff b8 70 49 f4 3c
2.245700 1  74c             Tx   d 8 2e 0a 49 a5 00 0a 6d 00
2.247200 1  74c             Tx   d 8 2f 20 14 da 20 5f 2f f5
2.248600 1  74c             Tx   d 8 20 7f 82 12 3c 01 00 90
2.250100 1  74c             Tx   d 8 21 82 f2 82 00 3c 0d 53
2.251600 1  74c             Tx   d 8 22 c0 20 f0 aa aa aa aa
2.252400 1  75c             Rx   d 8 04 76 1b 82 02 00 00 00
2.254000 1  74c             Tx   d 8 10 80 36 1c 91 00 00 f7
2.254300 1  75c             Rx   d 8 30 00 01 00 00 00 00 00
2.256100 1  74c             Tx   d 8 21 d9 ff 20 00 10 ff 09
2.257500 1  74c             Tx   d 8 22 ff c2 08 7e 42 02 02
2.259000 1  74c             Tx   d 8 23 c2 10 91 10 01 f8 d9
2.260600 1  74c             Tx   d 8 24 ff 92 48 09 ff c0 08
2.262000 1  74c             Tx   d 8 25 3f f0 ee 7f 3c 01 00
2.263500 1  74c             Tx   d 8 26 90 20 10 0d 00 00 02
2.265000 1  74c             Tx   d 8 27 82 09 3c 4c 53 09 21
2.266500 1  74c             Tx   d 8 28 f0 91 00 00 f7 d9 ff
2.268000 1  74c             Tx   d 8 29 b8 70 10 ff d9 f4 bc
2.269500 1  74c             Tx   d 8 2a 00 6d 00 71 13 df 12
2.271000 1  74c             Tx   d 8 2b 3d 80 53 09 21 f0 91
2.272400 1  74c             Tx   d 8 2c 00 00 f7 d9 ff b8 70
2.273900 1  74c             Tx   d 8 2d 10 ff d9 f4 bc 00 91
2.275400 1  74c             Tx   d 8 2e 00 00 57 d9 55 a8 70
2.277000 1  74c             Tx   d 8 2f 6d 00 b8 13 da 40 5f
2.278400 1  74c             Tx   d 8 20 2f 2b 00 91 00 00 f7
2.279900 1  74c             Tx   d 8 21 d9 ff a8 70 54 ff 3b
2.281400 1  74c             Tx   d 8 22 f0 7d 80 aa aa aa aa
2.282200 1  75c             Rx   d 8 04 76 1c 91 00 00 00 00
2.283800 1  74c             Tx   d 8 10 80 36 1d 3e 89 91 00
2.284100 1  75c             Rx   d 8 30 00 01 00 00 00 00 00
2.285800 1  74c             Tx   d 8 21 00 f7 d9 ff a8 70 54
2.287300 1  74c             Tx   d 8 22 ff 3b c0 74 80 fe 8a
2.288800 1  74c             Tx   d 8 23 91 00 00 f7 d9 ff a8
2.290300 1  74c             Tx   d 8 24 70 54 ff b4 af 49 a4
2.291800 1  74c             Tx   d 8 25 02 0a 91 00 00 57 d9
2.293300 1  74c             Tx   d 8 26 55 a8 70 b0 65 3b 80
2.295300 1  74c             Tx   d 8 27 00 40 6d 00 31 1d 91
2.296700 1  74c             Tx   d 8 28 00 00 47 d9 44 04 90
2.298200 1  74c             Tx   d 8 29 49 a5 00 0a 6d 00 4f
2.299700 1  74c             Tx   d 8 2a 1d c2 19 37 09 68 90
2.301200 1  74c             Tx   d 8 2b 91 10 01 f8 d9 ff 90
2.302700 1  74c             Tx   d 8 2c 48 09 ff c0 08 3f f9
2.304200 1  74c             Tx   d 8 2d af ff 0d 00 40 02 00
2.305700 1  74c             Tx   d 8 2e 80 20 10 0d 00 00 02
2.307200 1  74c             Tx   d 8 2f 91 00 00 f7 d9 ff b8
2.308600 1  74c             Tx   d 8 20 70 d9 f4 3c 01 6d 00
2.310200 1  74c             Tx   d 8 21 1b 13 df 12 42 80 91
2.312100 1  74c             Tx   d 8 22 00 00 f7 aa aa aa aa
2.312900 1  75c             Rx   d 8 04 76 1d 3e 89 00 00 00
2.314500 1  74c             Tx   d 8 10 80 36 1e d9 ff 38 a0
2.314800 1  75c             Rx   d 8 30 00 01 00 00 00 00 00
2.316600 1  74c             Tx   d 8 21 82 00 82 01 82 02 da
2.318100 1  74c             Tx   d 8 22 08 74 f0 89 f1 06 09
2.319500 1  74c             Tx   d 8 23 89 f2 0a 09 2c f4 da
2.321000 1  74c             Tx   d 8 24 00 2c fe 91 00 00 f7
2.322600 1  74c             Tx   d 8 25 d9 ff 34 a0 91 00 00
2.324000 1  74c             Tx   d 8 26 27 d9 22 b8 70 d9 24
2.325500 1  74c             Tx   d 8 27 3c 01 91 00 00 57 d9
2.327100 1  74c             Tx   d 8 28 55 38 a0 6d 00 51 13
2.329000 1  74c             Tx   d 8 29 b4 f2 91 00 00 f7 d9
2.330500 1  74c             Tx   d 8 2a ff 38 a0 54 ff 3b b0
2.332000 1  74c             Tx   d 8 2b 2b 80 fe 88 91 00 00
2.333600 1  74c             Tx   d 8 2c f7 d9 ff 38 a0 49 ff
2.335600 1  74c             Tx   d 8 2d 00 0a 49 a2 00 0a a0
2.337100 1  74c             Tx   d 8 2e 34 44 ff 64 2f fc 4e
2.339000 1  74c             Tx   d 8 2f 91 00 00 f7 d9 ff 08
2.340500 1  74c             Tx   d 8 20 b0 d9 f4 24 80 6d 00
2.342000 1  74c             Tx   d 8 21 41 01 f6 23 6d 00 bb
2.343500 1  74c             Tx   d 8 22 07 0d 00 aa aa aa aa
2.344300 1  75c             Rx   d 8 04 76 1e d9 ff 00 00 00
2.345800 1  74c             Tx   d 8 10 80 36 1f 40 02 00 80
2.346100 1  75c             Rx   d 8 30 00 01 00 00 00 00 00
2.347900 1  74c             Tx   d 8 21 82 00 3c 06 01 40 00
2.349400 1  74c             Tx   d 8 22 f6 da 55 2c f8 c2 10
2.350900 1  74c             Tx   d 8 23 3b 00 20 f0 3f f0 f9
2.352400 1  74c             Tx   d 8 24 ff 00 90 20 20 40 4c
2.353900 1  74c             Tx   d 8 25 40 5f 82 18 da 00 78
2.355400 1  74c             Tx   d 8 26 02 da 00 78 03 14 ff
2.356800 1  74c             Tx   d 8 27 37 f9 08 94 08 1f 37
2.358300 1  74c             Tx   d 8 28 f9 08 90 09 ff c4 08
2.359800 1  74c             Tx   d 8 29 ff 8f 5c 80 da 00 3c
2.361300 1  74c             Tx   d 8 2a 06 10 a2 3b 50 05 00
2.362800 1  74c             Tx   d 8 2b 34 20 c2 1f bf 8f fb
2.364300 1  74c             Tx   d 8 2c ff 09 ff c4 08 34 af
2.365800 1  74c             Tx   d 8 2d da 00 3c 0a 10 a2 10
2.367200 1  74c             Tx   d 8 2e f4 09 40 48 08 89 20
2.368800 1  74c             Tx   d 8 2f 01 08 c2 1f 37 0f 68
2.370200 1  74c             Tx   d 8 20 f0 09 f0 c4 08 3f 0f
2.371700 1  74c             Tx   d 8 21 f5 ff da 00 78 02 da
2.373200 1  74c             Tx   d 8 22 00 78 03 aa aa aa aa
2.374000 1  75c             Rx   d 8 04 76 1f 40 02 00 00 00
2.375600 1  74c             Tx   d 8 10 80 36 20 82 00 3c 0c
2.375900 1  75c             Rx   d 8 30 00 01 00 00 00 00 00
2.377700 1  74c             Tx   d 8 21 01 a0 00 f6 14 f1 58
2.379200 1  74c             Tx   d 8 22 02 53 80 20 20 0f 21
2.380600 1  74c             Tx   d 8 23 00 10 a6 1f 78 02 c2
2.382100 1  74c             Tx   d 8 24 10 bf 40 f5 ff da 00
2.383600 1  74c             Tx   d 8 25 3c 0d 10 af 08 40 09
2.385100 1  74c             Tx   d 8 26 a1 0c 09 53 8f 20 20
2.386600 1  74c             Tx   d 8 27 0f 20 00 00 a6 01 89
2.388100 1  74c             Tx   d 8 28 a1 0c 09 c2 1f bf 4f
2.389600 1  74c             Tx   d 8 29 f4 ff 58 02 09 a0 0c
2.391200 1  74c             Tx   d 8 2a 09 49 af 10 0a 3b 80
2.393100 1  74c             Tx   d 8 2b 00 10 74 f9 89 af 16
2.394700 1  74c             Tx   d 8 2c 09 89 a0 1a 09 89 a1
2.396300 1  74c             Tx   d 8 2d 14 08 da 00 89 af 1e
2.398400 1  74c             Tx   d 8 2e 08 3c 01 49 a5 10 0a
2.400400 1  74c             Tx   d 8 2f 40 c4 6d 00 e3 12 da
2.401800 1  74c             Tx   d 8 20 20 5f 2f fa 7f 1d 00
2.403300 1  74c             Tx   d 8 21 c0 00 09 ff c4 08 86
2.404800 1  74c             Tx   d 8 22 8f 8b 0f aa aa aa aa
2.405600 1  75c             Rx   d 8 04 76 20 82 00 00 00 00
2.407200 1  74c             Tx   d 8 10 80 36 21 01 f0 34 af
2.407500 1  75c             Rx   d 8 30 00 01 00 00 00 00 00
2.409300 1  74c             Tx   d 8 21 09 ff c4 08 2c a1 da
2.410800 1  74c             Tx   d 8 22 00 3c 08 10 a2 10 f4
2.412200 1  74c             Tx   d 8 23 09 40 48 08 89 20 02
2.413700 1  74c             Tx   d 8 24 08 c2 1f bf 6f f9 ff
2.415200 1  74c             Tx   d 8 25 da 00 78 02 da 00 78
2.416700 1  74c             Tx   d 8 26 03 82 00 3c 0c 01 a0
2.418200 1  74c             Tx   d 8 27 00 26 14 21 58 02 53
2.419700 1  74c             Tx   d 8 28 80 20 20 0f 21 00 10
2.421200 1  74c             Tx   d 8 29 a6 1f 78 02 c2 10 bf
2.422700 1  74c             Tx   d 8 2a 40 f5 ff da 00 3c 0e
2.424100 1  74c             Tx   d 8 2b 10 a2 09 20 44 08 09
2.425600 1  74c             Tx   d 8 2c a1 0c 09 53 8f 20 20
2.427100 1  74c             Tx   d 8 2d 0f 20 00 00 a6 01 89
2.428600 1  74c             Tx   d 8 2e a1 0c 09 c2 1f bf 4f
2.430100 1  74c             Tx   d 8 2f f3 ff 58 02 09 a0 0c
2.431600 1  74c             Tx   d 8 20 09 49 a2 10 0a 3b 80
2.433100 1  74c             Tx   d 8 21 00 10 74 29 89 af 16
2.434600 1  74c             Tx   d 8 22 09 89 a0 aa aa aa aa
2.435400 1  75c             Rx   d 8 04 76 21 01 f0 00 00 00
2.437000 1  74c             Tx   d 8 10 80 36 22 1a 09 89 a1
2.437300 1  75c             Rx   d 8 30 00 01 00 00 00 00 00
2.439000 1  74c             Tx   d 8 21 14 08 da 00 89 af 1e
2.440500 1  74c             Tx   d 8 22 08 49 a5 10 0a 40 c4
2.442000 1  74c             Tx   d 8 23 6d 00 90 12 82 14 6d
2.443600 1  74c             Tx   d 8 24 00 fe 00 da 06 ac f3
2.445000 1  74c             Tx   d 8 25 da 21 2c f3 da 00 3c
2.446500 1  74c             Tx   d 8 26 05 10 a2 82 00 34 20
2.448000 1  74c             Tx   d 8 27 c2 1f bf 8f fc ff 3c
2.449500 1  74c             Tx   d 8 28 5b 08 3f 34 af 82 00
2.451000 1  74c             Tx   d 8 29 3c 0d 01 a0 00 26 09
2.452400 1  74c             Tx   d 8 2a ff c6 08 10 f4 0c 48
2.454100 1  74c             Tx   d 8 2b 2c 21 09 ff c6 08 c2
2.456000 1  74c             Tx   d 8 2c 1f ac f3 c2 10 bf 70
2.458000 1  74c             Tx   d 8 2d f4 ff da 00 78 02 da
2.459500 1  74c             Tx   d 8 2e 00 78 03 82 00 3c 0c
2.461100 1  74c             Tx   d 8 2f 01 a0 00 26 14 21 58
2.463200 1  74c             Tx   d 8 20 02 53 80 20 20 0f 21
2.464600 1  74c             Tx   d 8 21 00 10 a6 1f 78 02 c2
2.466100 1  74c             Tx   d 8 22 10 bf 40 aa aa aa aa
2.466900 1  75c             Rx   d 8 04 76 22 1a 09 00 00 00
2.468700 1  74c             Tx   d 8 10 80 36 23 f5 ff da 00
2.469000 1  75c             Rx   d 8 30 00 01 00 00 00 00 00
2.470600 1  74c             Tx   d 8 21 3c 0e 10 a2 09 20 44
2.472000 1  74c             Tx   d 8 22 08 09 a1 0c 09 53 8f
2.473500 1  74c             Tx   d 8 23 20 20 0f 20 00 00 a6
2.475000 1  74c             Tx   d 8 24 01 89 a1 0c 09 c2 1f
2.476500 1  74c             Tx   d 8 25 bf 4f f3 ff 58 02 09
2.478000 1  74c             Tx   d 8 26 a0 0c 09 49 a2 10 0a
2.480000 1  74c             Tx   d 8 27 3b 80 00 10 74 29 89
2.481400 1  74c             Tx   d 8 28 af 16 09 89 a0 1a 09
2.482900 1  74c             Tx   d 8 29 89 a1 14 08 da 00 89
2.484400 1  74c             Tx   d 8 2a af 1e 08 08 3f 3b f0
2.485900 1  74c             Tx   d 8 2b 02 00 3f 0f 05 80 da
2.487400 1  74c             Tx   d 8 2c 20 2c f3 3c 04 08 3f
2.488900 1  74c             Tx   d 8 2d c2 1f 2c f3 49 a5 10
2.490400 1  74c             Tx   d 8 2e 0a 40 c4 6d 00 29 12
2.491800 1  74c             Tx   d 8 2f 82 14 6d 00 97 00 09
2.493400 1  74c             Tx   d 8 20 ff c6 08 09 f0 c4 08
2.494800 1  74c             Tx   d 8 21 3f 0f a2 ff 02 82 3c
2.496300 1  74c             Tx   d 8 22 01 00 90 aa aa aa aa
2.497100 1  75c             Rx   d 8 04 76 23 f5 ff 00 00 00
2.498700 1  74c             Tx   d 8 10 80 36 24 20 08 82 12
2.499000 1  75c             Rx   d 8 30 00 01 00 00 00 00 00
2.500800 1  74c             Tx   d 8 21 58 02 37 0f 68 04 34
2.502300 1  74c             Tx   d 8 22 40 37 0f 68 f0 2c 41
2.503800 1  74c             Tx   d 8 23 09 a0 0e 09 da 00 3c
2.505200 1  74c             Tx   d 8 24 08 10 af 53 8f 20 10
2.506700 1  74c             Tx   d 8 25 57 00 68 11 34 f1 c2
2.508200 1  74c             Tx   d 8 26 1f bf 4f f9 ff 09 a0
2.509700 1  74c             Tx   d 8 27 12 09 82 01 3c 09 01
2.511200 1  74c             Tx   d 8 28 a1 00 f6 53 81 20 f0
2.512700 1  74c             Tx   d 8 29 57 00 68 ff 2c f4 c2
2.514200 1  74c             Tx   d 8 2a 11 bf 41 f8 ff 14 af
2.515800 1  74c             Tx   d 8 2b 86 cf 2c 42 0c 42 ee
2.517800 1  74c             Tx   d 8 2c 15 14 af 16 0f ac 42
2.519700 1  74c             Tx   d 8 2d da 00 3c 0a 10 4f 10
2.521400 1  74c             Tx   d 8 2e a2 09 20 41 08 28 80
2.522900 1  74c             Tx   d 8 2f ac 43 c2 1f 37 0f 68
2.524400 1  74c             Tx   d 8 20 f0 09 40 c4 08 3f 0f
2.525900 1  74c             Tx   d 8 21 f5 ff 82 02 3c 4e 0c
2.527400 1  74c             Tx   d 8 22 42 de 17 aa aa aa aa
2.528200 1  75c             Rx   d 8 04 76 24 20 08 00 00 00
2.530100 1  74c             Tx   d 8 10 80 36 25 14 af 16 0f
2.530400 1  75c             Rx   d 8 30 00 01 00 00 00 00 00
2.532300 1  74c             Tx   d 8 21 8f 8f 20 00 0c a1 a6
2.533800 1  74c             Tx   d 8 22 f0 89 40 84 08 da 00
2.535300 1  74c             Tx   d 8 23 3c 07 10 4f 10 a2 09
2.536800 1  74c             Tx   d 8 24 20 42 08 28 80 c2 1f
2.538300 1  74c             Tx   d 8 25 bf 6f fa ff da 06 ac
2.539700 1  74c             Tx   d 8 26 43 82 22 3c 36 0c 42
2.541200 1  74c             Tx   d 8 27 df 2f 31 80 09 4f c4
2.542700 1  74c             Tx   d 8 28 08 09 40 c6 08 a2 0f
2.544200 1  74c             Tx   d 8 29 37 0f 70 00 ff 80 16
2.545700 1  74c             Tx   d 8 2a 80 82 01 3c 0f 09 4f
2.547200 1  74c             Tx   d 8 2b c6 08 10 4f 01 a1 00
2.548700 1  74c             Tx   d 8 2c 26 0c 21 2c f8 09 4f
2.550200 1  74c             Tx   d 8 2d c6 08 c2 1f ac 43 c2
2.551600 1  74c             Tx   d 8 2e 11 37 01 68 10 3f 01
2.553100 1  74c             Tx   d 8 2f f2 ff 82 02 3c 12 82
2.554600 1  74c             Tx   d 8 20 00 3c 0d 09 4f c6 08
2.556100 1  74c             Tx   d 8 21 10 4f 01 a0 00 26 0c
2.557600 1  74c             Tx   d 8 22 21 2c f8 aa aa aa aa
2.558400 1  75c             Rx   d 8 04 76 25 14 af 00 00 00
2.560200 1  74c             Tx   d 8 10 80 36 26 09 4f c6 08
2.560500 1  75c             Rx   d 8 30 00 01 00 00 00 00 00
2.562100 1  74c             Tx   d 8 21 c2 1f ac 43 c2 10 bf
2.563500 1  74c             Tx   d 8 22 70 f4 ff 82 22 3c 04
2.565000 1  74c             Tx   d 8 23 0c 42 5e 32 82 42 3c
2.566500 1  74c             Tx   d 8 24 01 00 90 91 00 00 f7
2.568000 1  74c             Tx   d 8 25 d9 ff 2c 70 09 f0 68
2.569500 1  74c             Tx   d 8 26 09 82 07 02 46 0b 01
2.571000 1  74c             Tx   d 8 27 10 48 6d ff b5 f6 91
2.572500 1  74c             Tx   d 8 28 10 01 f8 d9 ff 28 98
2.574000 1  74c             Tx   d 8 29 09 f0 40 09 0b 02 10
2.575500 1  74c             Tx   d 8 2a f1 0b 13 80 f2 ee 08
2.577000 1  74c             Tx   d 8 2b 91 10 01 f8 d9 ff 28
2.578500 1  74c             Tx   d 8 2c 98 09 f4 40 09 3c 27
2.580100 1  74c             Tx   d 8 2d 4d c0 e2 ff 37 0f e1
2.581900 1  74c             Tx   d 8 2e f7 8b 0f 20 f2 3c 01
2.583400 1  74c             Tx   d 8 2f 0d 00 40 03 00 00 3c
2.585100 1  74c             Tx   d 8 20 01 3c 01 85 f0 10 00
2.587000 1  74c             Tx   d 8 21 82 05 02 04 85 f1 2c
2.588600 1  74c             Tx   d 8 22 00 82 00 aa aa aa aa
2.589400 1  75c             Rx   d 8 04 76 26 09 4f 00 00 00
2.591400 1  74c             Tx   d 8 10 80 36 27 a6 40 a6 51
2.591700 1  75c             Rx   d 8 30 00 01 00 00 00 00 00
2.593700 1  74c             Tx   d 8 21 3c 01 91 10 01 f8 d9
2.595300 1  74c             Tx   d 8 22 ff 28 98 09 f4 40 09
2.597300 1  74c             Tx   d 8 23 26 40 26 51 6e 03 0d
2.598700 1  74c             Tx   d 8 24 00 00 03 3c 01 0b 20
2.600200 1  74c             Tx   d 8 25 40 40 0b 31 50 50 3c
2.601700 1  74c             Tx   d 8 26 01 3c 01 91 10 01 f8
2.603100 1  74c             Tx   d 8 27 d9 ff 28 98 09 f0 40
2.604600 1  74c             Tx   d 8 28 09 0b 04 10 f1 0b 15
2.606100 1  74c             Tx   d 8 29 80 f2 ee 03 da 00 3c
2.607600 1  74c             Tx   d 8 2a 29 4d c0 e2 ff 37 0f
2.609100 1  74c             Tx   d 8 2b e1 f7 8b 0f 20 f2 3c
2.610600 1  74c             Tx   d 8 2c 01 0d 00 40 03 00 00
2.612100 1  74c             Tx   d 8 2d 3c 01 3c 01 85 f0 10
2.613600 1  74c             Tx   d 8 2e 00 82 03 02 02 85 f1
2.615100 1  74c             Tx   d 8 2f 2c 00 82 00 a6 20 a6
2.616600 1  74c             Tx   d 8 20 31 3c 01 91 10 01 f8
2.618000 1  74c             Tx   d 8 21 d9 ff 28 98 09 f2 40
2.619500 1  74c             Tx   d 8 22 09 26 20 aa aa aa aa
2.620300 1  75c             Rx   d 8 04 76 27 a6 40 00 00 00
2.622100 1  74c             Tx   d 8 10 80 36 28 26 31 6e 03
2.622400 1  75c             Rx   d 8 30 00 01 00 00 00 00 00
2.624200 1  74c             Tx   d 8 21 0d 00 00 03 3c 01 0b
2.625600 1  74c             Tx   d 8 22 40 50 f1 0b 51 00 f2
2.627200 1  74c             Tx   d 8 23 0b 15 90 f2 3c 01 6e
2.628600 1  74c             Tx   d 8 24 ca 3c 01 00 90 20 20
2.630100 1  74c             Tx   d 8 25 40 4c 40 5f 0c c9 82
2.631600 1  74c             Tx   d 8 26 10 3e 0c 82 20 5f 0f
2.633100 1  74c             Tx   d 8 27 26 00 82 30 5f 0f c7
2.634600 1  74c             Tx   d 8 28 00 82 40 5f 0f e1 00
2.636100 1  74c             Tx   d 8 29 1d 00 e0 00 09 cf c4
2.637600 1  74c             Tx   d 8 2a 08 bf 3f 0a 80 09 c4
2.639000 1  74c             Tx   d 8 2b 48 08 3b 30 01 50 40
2.640500 1  74c             Tx   d 8 2c f4 6d 00 3e 06 3c 0f
2.642000 1  74c             Tx   d 8 2d 91 00 00 27 d9 22 34
2.643500 1  74c             Tx   d 8 2e 00 da 00 34 2f da 50
2.645000 1  74c             Tx   d 8 2f 2c f8 0c c9 2c f9 82
2.646500 1  74c             Tx   d 8 20 24 40 f4 6d 00 45 06
2.648000 1  74c             Tx   d 8 21 1d 00 cc 00 0c ca 3b
2.649500 1  74c             Tx   d 8 22 00 01 00 aa aa aa aa
2.650300 1  75c             Rx   d 8 04 76 28 26 31 00 00 00
2.652000 1  74c             Tx   d 8 10 80 36 29 fe 0b 91 00
2.652300 1  75c             Rx   d 8 30 00 01 00 00 00 00 00
2.653900 1  74c             Tx   d 8 21 00 27 d9 22 34 00 da
2.655400 1  74c             Tx   d 8 22 01 34 2f da 50 2c f8
2.656900 1  74c             Tx   d 8 23 0c c9 2c f9 0c ca 2c
2.658400 1  74c             Tx   d 8 24 fa 91 30 00 27 d9 22
2.659900 1  74c             Tx   d 8 25 fc fd 0c 21 2c fb 14
2.661500 1  74c             Tx   d 8 26 2f 2c fc 82 54 40 f4
2.663300 1  74c             Tx   d 8 27 6d 00 27 06 1d 00 87
2.664800 1  74c             Tx   d 8 28 00 0c ca 3b 00 0a 00
2.666300 1  74c             Tx   d 8 29 5f 0f 21 80 91 00 00
2.667800 1  74c             Tx   d 8 2a 27 d9 22 34 00 da 00
2.669300 1  74c             Tx   d 8 2b 34 2f da 50 2c f8 0c
2.670700 1  74c             Tx   d 8 2c c9 2c f9 0c ca 2c fa
2.672300 1  74c             Tx   d 8 2d bb 30 2b fb 91 30 00
2.673700 1  74c             Tx   d 8 2e 27 f9 2f fc fd 91 30
2.675300 1  74c             Tx   d 8 2f 00 27 d9 22 fc fd 0c
2.676800 1  74c             Tx   d 8 20 21 2c fb 14 2f 2c fc
2.678300 1  74c             Tx   d 8 21 82 54 40 f4 6d 00 02
2.679800 1  74c             Tx   d 8 22 06 3c 62 aa aa aa aa
2.680500 1  75c             Rx   d 8 04 76 29 fe 0b 00 00 00
2.682200 1  74c             Tx   d 8 10 80 36 2a 0c ca 3b 00
2.682500 1  75c             Rx   d 8 30 00 01 00 00 00 00 00
2.684300 1  74c             Tx   d 8 21 0f 00 5f 0f 5e 80 91
2.685700 1  74c             Tx   d 8 22 00 f0 2a 54 2f ee 03
2.687200 1  74c             Tx   d 8 23 6d ff ca f6 91 20 00
2.688700 1  74c             Tx   d 8 24 2a d9 22 00 08 09 2f
2.690200 1  74c             Tx   d 8 25 c0 08 ee 34 91 20 00
2.691700 1  74c             Tx   d 8 26 2a 19 2f 00 08 74 af
2.693200 1  74c             Tx   d 8 27 54 af bb a0 55 0a 7e
2.694700 1  74c             Tx   d 8 28 03 da 00 3c 28 bb 00
2.696200 1  74c             Tx   d 8 29 00 48 9b 14 00 4a 6d
2.697600 1  74c             Tx   d 8 2a 00 dd 08 82 00 3c 07
2.699100 1  74c             Tx   d 8 2b 53 40 20 f0 10 a2 da
2.700600 1  74c             Tx   d 8 2c 00 74 2f c2 10 bf 80
2.702100 1  74c             Tx   d 8 2d fa ff bb a0 55 fa 74
2.703600 1  74c             Tx   d 8 2e af bb 00 00 48 9b 14
2.705100 1  74c             Tx   d 8 2f 00 4a 49 a4 00 0a 3b
2.706600 1  74c             Tx   d 8 20 00 02 50 6d 00 82 0a
2.708100 1  74c             Tx   d 8 21 91 20 00 2a 19 2f 00
2.709600 1  74c             Tx   d 8 22 08 bb a0 aa aa aa aa
2.710400 1  75c             Rx   d 8 04 76 2a 0c ca 00 00 00
2.712500 1  74c             Tx   d 8 10 80 36 2b 55 0a 7e 03
2.712800 1  75c             Rx   d 8 30 00 01 00 00 00 00 00
2.714500 1  74c             Tx   d 8 21 da 00 3c 02 da 03 3c
2.716000 1  74c             Tx   d 8 22 02 da 02 ee 14 91 30
2.718100 1  74c             Tx   d 8 23 00 27 d9 22 fc fd da
2.720100 1  74c             Tx   d 8 24 50 2c f8 0c c9 2c f9
2.722000 1  74c             Tx   d 8 25 da f0 2c fa 0c 21 2c
2.723900 1  74c             Tx   d 8 26 fb 14 2f 2c fc 82 54
2.725700 1  74c             Tx   d 8 27 40 f4 6d 00 a8 05 3c
2.727300 1  74c             Tx   d 8 28 08 09 c4 48 08 3b 30
2.728700 1  74c             Tx   d 8 29 01 50 40 f4 6d 00 8a
2.730200 1  74c             Tx   d 8 2a 05 3c 27 09 cf c4 08
2.731600 1  74c             Tx   d 8 2b bf 3f 0a 80 09 c4 48
2.733100 1  74c             Tx   d 8 2c 08 3b 30 01 50 40 f4
2.734600 1  74c             Tx   d 8 2d 6d 00 7e 05 3c 11 91
2.736100 1  74c             Tx   d 8 2e 00 00 27 d9 22 34 00
2.737600 1  74c             Tx   d 8 2f da 01 34 2f 0c c8 8b
2.739100 1  74c             Tx   d 8 20 0f 04 f0 2c f8 0c c9
2.740600 1  74c             Tx   d 8 21 2c f9 82 24 40 f4 6d
2.742100 1  74c             Tx   d 8 22 00 83 05 aa aa aa aa
2.742900 1  75c             Rx   d 8 04 76 2b 55 0a 00 00 00
2.744600 1  74c             Tx   d 8 10 80 36 2c 3c 0a 3c 09
2.744900 1  75c             Rx   d 8 30 00 01 00 00 00 00 00
2.746500 1  74c             Tx   d 8 21 09 c4 48 08 3b 20 01
2.748000 1  74c             Tx   d 8 22 50 40 f4 6d 00 64 05
2.749500 1  74c             Tx   d 8 23 3c 01 00 90 40 4f 40
2.751000 1  74c             Tx   d 8 24 5c 09 ff c4 08 bf 3f
2.752500 1  74c             Tx   d 8 25 09 80 08 84 3b 30 01
2.754000 1  74c             Tx   d 8 26 50 40 c4 6d 00 56 05
2.755500 1  74c             Tx   d 8 27 3c 25 08 8f 8b 0f 04
2.756900 1  74c             Tx   d 8 28 f0 2c c8 08 9f 2c c9
2.758400 1  74c             Tx   d 8 29 82 24 40 c4 6d 00 61
2.760000 1  74c             Tx   d 8 2a 05 08 9f 82 10 3e 04
2.761400 1  74c             Tx   d 8 2b 82 30 3e 0c 3c 0e 91
2.762900 1  74c             Tx   d 8 2c 40 00 ff d9 ff 00 0a
2.764400 1  74c             Tx   d 8 2d 82 70 da 01 0f 0f 10
2.765900 1  74c             Tx   d 8 2e f0 6c f1 3c 0b 6d ff
2.767400 1  74c             Tx   d 8 2f bd f6 3c 08 08 84 3b
2.768900 1  74c             Tx   d 8 20 20 01 50 40 c4 6d 00
2.770300 1  74c             Tx   d 8 21 32 05 3c 01 00 90 20
2.771800 1  74c             Tx   d 8 22 08 40 4f aa aa aa aa
2.772600 1  75c             Rx   d 8 04 76 2c 3c 0a 00 00 00
2.774400 1  74c             Tx   d 8 10 80 36 2d 40 5c 08 cf
2.774700 1  75c             Rx   d 8 30 00 01 00 00 00 00 00
2.776300 1  74c             Tx   d 8 21 8f 0f 21 00 08 df 8f
2.777800 1  74c             Tx   d 8 22 8f 20 f0 42 f0 08 ef
2.779300 1  74c             Tx   d 8 23 42 f0 74 a0 91 00 f0
2.780800 1  74c             Tx   d 8 24 2a 54 2f 54 a0 fe 06
2.782200 1  74c             Tx   d 8 25 91 00 00 27 d9 22 24
2.783800 1  74c             Tx   d 8 26 70 da 00 2c 24 da 00
2.785200 1  74c             Tx   d 8 27 78 01 7b 00 f0 4a 6d
2.786700 1  74c             Tx   d 8 28 00 82 07 7b 00 f0 4a
2.788200 1  74c             Tx   d 8 29 49 a4 00 0a 3b 80 00
2.789700 1  74c             Tx   d 8 2a 50 6d 00 72 08 3c 15
2.791200 1  74c             Tx   d 8 2b 91 00 00 27 d9 22 24
2.792700 1  74c             Tx   d 8 2c 70 da 01 2c 24 da 01
2.794200 1  74c             Tx   d 8 2d 78 01 7b 00 f0 4a 6d
2.795600 1  74c             Tx   d 8 2e 00 6d 07 7b 00 f0 4a
2.797100 1  74c             Tx   d 8 2f 49 a4 00 0a 3b 80 00
2.798600 1  74c             Tx   d 8 20 50 6d 00 5d 08 09 ff
2.800100 1  74c             Tx   d 8 21 c4 08 bf 9f 0a 80 08
2.801600 1  74c             Tx   d 8 22 84 3b 30 aa aa aa aa
2.802400 1  75c             Rx   d 8 04 76 2d 40 5c 00 00 00
2.804000 1  74c             Tx   d 8 10 80 36 2e 01 50 40 c4
2.804300 1  75c             Rx   d 8 30 00 01 00 00 00 00 00
2.806100 1  74c             Tx   d 8 21 6d 00 eb 04 1d 00 b7
2.807500 1  74c             Tx   d 8 22 00 08 90 da 0c 5f 0f
2.809000 1  74c             Tx   d 8 23 93 00 da f1 3e 03 1d
2.810500 1  74c             Tx   d 8 24 00 a8 00 08 a0 da 86
2.812000 1  74c             Tx   d 8 25 be 01 da 87 5f 0f 30
2.813500 1  74c             Tx   d 8 26 00 da 88 5f 0f 3a 00
2.815000 1  74c             Tx   d 8 27 da 89 5f 0f 44 00 da
2.816500 1  74c             Tx   d 8 28 8a 5f 0f 4e 00 da 90
2.818000 1  74c             Tx   d 8 29 5f 0f 58 00 3c 73 08
2.819400 1  74c             Tx   d 8 2a bf 82 20 3e 02 3c 16
2.820900 1  74c             Tx   d 8 2b 08 8f 8b 0f 04 f0 2c
2.822400 1  74c             Tx   d 8 2c c8 08 9f 2c c9 08 af
2.823900 1  74c             Tx   d 8 2d 2c ca 08 bf 2c cb 08
2.825400 1  74c             Tx   d 8 2e cf 2c cc 08 df 2c cd
2.826900 1  74c             Tx   d 8 2f 08 ef 2c ce 82 74 40
2.828400 1  74c             Tx   d 8 20 c4 6d 00 cc 04 3c 08
2.829900 1  74c             Tx   d 8 21 08 84 3b 30 01 50 40
2.831500 1  74c             Tx   d 8 22 c4 6d 00 aa aa aa aa
2.832300 1  75c             Rx   d 8 04 76 2e 01 50 00 00 00
2.833900 1  74c             Tx   d 8 10 80 36 2f af 04 3c 01
2.834200 1  75c             Rx   d 8 30 00 01 00 00 00 00 00
2.835900 1  74c             Tx   d 8 21 3c 59 08 bf 82 20 3e
2.838100 1  74c             Tx   d 8 22 02 3c 02 3c 08 08 84
2.839700 1  74c             Tx   d 8 23 3b 30 01 50 40 c4 6d
2.841300 1  74c             Tx   d 8 24 00 a2 04 3c 01 3c 4c
2.843400 1  74c             Tx   d 8 25 08 bf 82 20 3e 02 3c
2.845600 1  74c             Tx   d 8 26 02 3c 08 08 84 3b 30
2.847600 1  74c             Tx   d 8 27 01 50 40 c4 6d 00 95
2.849000 1  74c             Tx   d 8 28 04 3c 01 3c 3f 08 bf
2.850500 1  74c             Tx   d 8 29 82 20 3e 02 3c 02 3c
2.852000 1  74c             Tx   d 8 2a 08 08 84 3b 30 01 50
2.853500 1  74c             Tx   d 8 2b 40 c4 6d 00 88 04 3c
2.855000 1  74c             Tx   d 8 2c 01 3c 32 08 bf 82 20
2.856500 1  74c             Tx   d 8 2d 3e 02 3c 02 3c 08 08
2.858000 1  74c             Tx   d 8 2e 84 3b 30 01 50 40 c4
2.859500 1  74c             Tx   d 8 2f 6d 00 7b 04 3c 01 3c
2.861000 1  74c             Tx   d 8 20 25 08 bf 82 20 3e 02
2.862500 1  74c             Tx   d 8 21 3c 12 da 10 2c c8 da
2.863900 1  74c             Tx   d 8 22 0a 2c c9 aa aa aa aa
2.864700 1  75c             Rx   d 8 04 76 2f af 04 00 00 00
2.866300 1  74c             Tx   d 8 10 80 36 30 08 8f 8b 0f
2.866600 1  75c             Rx   d 8 30 00 01 00 00 00 00 00
2.868400 1  74c             Tx   d 8 21 04 f0 2c ca 08 9f 2c
2.869900 1  74c             Tx   d 8 22 cb 08 af 2c cc 82 54
2.871400 1  74c             Tx   d 8 23 40 c4 6d 00 7b 04 3c
2.872800 1  74c             Tx   d 8 24 08 08 84 3b 30 01 50
2.874300 1  74c             Tx   d 8 25 40 c4 6d 00 5e 04 3c
2.875800 1  74c             Tx   d 8 26 01 3c 08 08 84 3b 20
2.877400 1  74c             Tx   d 8 27 02 50 40 c4 6d 00 56
2.878800 1  74c             Tx   d 8 28 04 3c 01 3c 21 08 af
2.880300 1  74c             Tx   d 8 29 82 40 3e 02 3c 0e 08
2.881800 1  74c             Tx   d 8 2a 8f 8b 0f 04 f0 2c c8
2.883300 1  74c             Tx   d 8 2b 08 9f 2c c9 08 af 2c
2.884800 1  74c             Tx   d 8 2c ca 82 44 40 c4 6d 00
2.886200 1  74c             Tx   d 8 2d 5a 04 3c 08 08 84 3b
2.887700 1  74c             Tx   d 8 2e 20 02 50 40 c4 6d 00
2.889200 1  74c             Tx   d 8 2f 3d 04 3c 01 3c 08 08
2.890700 1  74c             Tx   d 8 20 84 3b 20 02 50 40 c4
2.892200 1  74c             Tx   d 8 21 6d 00 35 04 3c 01 00
2.893800 1  74c             Tx   d 8 22 90 20 08 aa aa aa aa
2.894600 1  75c             Rx   d 8 04 76 30 08 8f 00 00 00
2.896100 1  74c             Tx   d 8 10 80 36 31 40 4f 40 5c
2.896400 1  75c             Rx   d 8 30 00 01 00 00 00 00 00
2.898200 1  74c             Tx   d 8 21 da 00 74 af da 00 78
2.899600 1  74c             Tx   d 8 22 01 91 00 00 27 d9 22
2.901100 1  74c             Tx   d 8 23 34 00 da 01 34 2f 40
2.902600 1  74c             Tx   d 8 24 c4 6d ff 87 fb 08 9f
2.904100 1  74c             Tx   d 8 25 8f ff 00 81 08 9f 16
2.905600 1  74c             Tx   d 8 26 f0 86 cf 49 f4 0a 0a
2.907100 1  74c             Tx   d 8 27 49 a5 00 0a 02 84 6d
2.908600 1  74c             Tx   d 8 28 00 b4 04 02 29 01 f8
2.910100 1  74c             Tx   d 8 29 00 26 49 24 0a 0a 49
2.911500 1  74c             Tx   d 8 2a a5 04 0a 02 f4 6d 00
2.913000 1  74c             Tx   d 8 2b aa 04 a6 29 8e 98 08
2.914500 1  74c             Tx   d 8 2c 84 3b 30 01 50 40 c4
2.916000 1  74c             Tx   d 8 2d 6d 00 04 04 3c 07 54
2.917500 1  74c             Tx   d 8 2e a4 09 a5 04 09 6d 00
2.919000 1  74c             Tx   d 8 2f 35 04 02 29 8e 98 08
2.920500 1  74c             Tx   d 8 20 84 3b 10 03 50 40 c4
2.922000 1  74c             Tx   d 8 21 6d 00 f6 03 3c 1b da
2.923500 1  74c             Tx   d 8 22 63 2c c8 aa aa aa aa
2.924300 1  75c             Rx   d 8 04 76 31 40 4f 00 00 00
2.925900 1  74c             Tx   d 8 10 80 36 32 09 af c4 08
2.926200 1  75c             Rx   d 8 30 00 01 00 00 00 00 00
2.927900 1  74c             Tx   d 8 21 c2 1f ac c2 54 af 60
2.929400 1  74c             Tx   d 8 22 f2 82 00 3c 07 9a 10
2.930900 1  74c             Tx   d 8 23 10 cf 14 2f 2c f8 b0
2.932400 1  74c             Tx   d 8 24 12 c2 10 58 01 3f f0
2.933800 1  74c             Tx   d 8 25 f9 ff 09 cf c4 08 37
2.935300 1  74c             Tx   d 8 26 0f 68 40 40 c4 6d 00
2.936800 1  74c             Tx   d 8 27 f1 03 3c 01 00 90 40
2.938300 1  74c             Tx   d 8 28 4f 40 5c 08 9f 82 20
2.939800 1  74c             Tx   d 8 29 4b 0f 01 02 da 00 3e
2.941300 1  74c             Tx   d 8 2a 15 da 01 5f 1f 2e 00
2.942800 1  74c             Tx   d 8 2b 3c 4a 09 ff c4 08 bf
2.944300 1  74c             Tx   d 8 2c 5f 09 80 08 84 3b 30
2.945800 1  74c             Tx   d 8 2d 01 50 40 c4 6d 00 c3
2.947300 1  74c             Tx   d 8 2e 03 3c 20 08 8f 2c c8
2.948800 1  74c             Tx   d 8 2f 08 9f 2c c9 08 af 08
2.950800 1  74c             Tx   d 8 20 a4 6d 00 6f 04 3e 2d
2.952800 1  74c             Tx   d 8 21 08 bf 08 b4 6d 00 6a
2.954200 1  74c             Tx   d 8 22 04 3e 28 aa aa aa aa
2.955000 1  75c             Rx   d 8 04 76 32 09 af 00 00 00
2.956700 1  74c             Tx   d 8 10 80 36 33 08 84 3b 50
2.957000 1  75c             Rx   d 8 30 00 01 00 00 00 00 00
2.958700 1  74c             Tx   d 8 21 03 50 40 c4 6d 00 ae
2.960300 1  74c             Tx   d 8 22 03 3c 0b 91 00 00 f7
2.962300 1  74c             Tx   d 8 23 d9 ff 3c 00 da 01 34
2.964300 1  74c             Tx   d 8 24 ff 82 24 40 c4 6d 00
2.966200 1  74c             Tx   d 8 25 b9 03 3c 26 09 ff c4
2.967700 1  74c             Tx   d 8 26 08 bf 3f 09 80 08 84
2.969100 1  74c             Tx   d 8 27 3b 30 01 50 40 c4 6d
2.971000 1  74c             Tx   d 8 28 00 98 03 3c 13 08 8f
2.972500 1  74c             Tx   d 8 29 8b 0f 04 f0 2c c8 08
2.974000 1  74c             Tx   d 8 2a 9f 2c c9 6d 00 47 04
2.975500 1  74c             Tx   d 8 2b 89 c2 0a 08 6d 00 43
2.977000 1  74c             Tx   d 8 2c 04 89 c2 0b 08 82 44
2.978400 1  74c             Tx   d 8 2d 40 c4 6d 00 9b 03 3c
2.979900 1  74c             Tx   d 8 2e 08 08 84 3b 20 01 50
2.981400 1  74c             Tx   d 8 2f 40 c4 6d 00 7e 03 3c
2.982900 1  74c             Tx   d 8 20 01 00 90 09 4f c4 08
2.984400 1  74c             Tx   d 8 21 bf 4f 0a 80 09 44 48
2.985900 1  74c             Tx   d 8 22 08 3b 30 aa aa aa aa
2.986700 1  75c             Rx   d 8 04 76 33 08 84 00 00 00
2.988300 1  74c             Tx   d 8 10 80 36 34 01 50 40 54
2.988600 1  75c             Rx   d 8 30 00 01 00 00 00 00 00
2.990300 1  74c             Tx   d 8 21 6d 00 71 03 3c 62 0c
2.991800 1  74c             Tx   d 8 22 49 82 30 3e 02 3c 56
2.993400 1  74c             Tx   d 8 23 0c 4a 82 10 3e 0a 82
2.994800 1  74c             Tx   d 8 24 20 be 0b 82 30 5f 0f
2.996300 1  74c             Tx   d 8 25 2c 00 82 40 5f 0f 36
2.997800 1  74c             Tx   d 8 26 00 3c 41 91 00 00 f7
2.999300 1  74c             Tx   d 8 27 d9 ff 34 00 da 01 34
3.000800 1  74c             Tx   d 8 28 ff 0c 48 8b 0f 04 f0
3.002200 1  74c             Tx   d 8 29 2c 58 0c 49 2c 59 0c
3.003700 1  74c             Tx   d 8 2a 4a 2c 5a 82 34 40 54
3.005200 1  74c             Tx   d 8 2b 6d 00 64 03 3c 36 91
3.006700 1  74c             Tx   d 8 2c 00 00 f7 d9 ff 34 00
3.008200 1  74c             Tx   d 8 2d da 00 34 ff 0c 48 8b
3.009700 1  74c             Tx   d 8 2e 0f 04 f0 2c 58 0c 49
3.011200 1  74c             Tx   d 8 2f 2c 59 0c 4a 2c 5a 82
3.012600 1  74c             Tx   d 8 20 34 40 54 6d 00 51 03
3.014100 1  74c             Tx   d 8 21 3c 23 0c 48 8b 0f 04
3.015600 1  74c             Tx   d 8 22 f0 2c 58 aa aa aa aa
3.016400 1  75c             Rx   d 8 04 76 34 01 50 00 00 00
3.018000 1  74c             Tx   d 8 10 80 36 35 0c 49 2c 59
3.018300 1  75c             Rx   d 8 30 00 01 00 00 00 00 00
3.020100 1  74c             Tx   d 8 21 0c 4a 2c 5a 82 34 40
3.021600 1  74c             Tx   d 8 22 54 6d 00 44 03 3c 16
3.023300 1  74c             Tx   d 8 23 0c 48 8b 0f 04 f0 2c
3.024700 1  74c             Tx   d 8 24 58 0c 49 2c 59 0c 4a
3.026700 1  74c             Tx   d 8 25 2c 5a 82 34 40 54 6d
3.028300 1  74c             Tx   d 8 26 00 37 03 3c 09 09 44
3.029800 1  74c             Tx   d 8 27 48 08 3b 20 01 50 40
3.031300 1  74c             Tx   d 8 28 54 6d 00 19 03 3c 01
3.032700 1  74c             Tx   d 8 29 3c 09 09 44 48 08 3b
3.034200 1  74c             Tx   d 8 2a 20 02 50 40 54 6d 00
3.035700 1  74c             Tx   d 8 2b 10 03 3c 01 00 90 40
3.037200 1  74c             Tx   d 8 2c 4f 40 5c 08 af 8f 8f
3.038700 1  74c             Tx   d 8 2d 20 00 08 bf 42 f0 09
3.040200 1  74c             Tx   d 8 2e ff c4 08 ff 2f 0a 80
3.041700 1  74c             Tx   d 8 2f 08 84 3b 30 01 50 40
3.043200 1  74c             Tx   d 8 20 c4 6d 00 fd 02 1d 00
3.044700 1  74c             Tx   d 8 21 b5 00 09 ff c4 08 bf
3.046100 1  74c             Tx   d 8 22 9f 0a 80 aa aa aa aa
3.046900 1  75c             Rx   d 8 04 76 35 0c 49 00 00 00
3.048600 1  74c             Tx   d 8 10 80 36 36 08 84 3b 30
3.048900 1  75c             Rx   d 8 30 00 01 00 00 00 00 00
3.050600 1  74c             Tx   d 8 21 01 50 40 c4 6d 00 f1
3.052100 1  74c             Tx   d 8 22 02 1d 00 a9 00 08 9f
3.053600 1  74c             Tx   d 8 23 82 11 3e 13 1d 00 9d
3.055100 1  74c             Tx   d 8 24 00 bb 00 f0 ff 5f 0f
3.056600 1  74c             Tx   d 8 25 39 80 08 cf 8f 8f 20
3.058000 1  74c             Tx   d 8 26 00 08 df 42 f0 ff 20
3.059500 1  74c             Tx   d 8 27 0a 80 08 84 3b 20 02
3.061000 1  74c             Tx   d 8 28 50 40 f4 6d 00 d9 02
3.062500 1  74c             Tx   d 8 29 1d 00 91 00 53 80 20
3.064000 1  74c             Tx   d 8 2a f0 91 10 01 28 d9 22
3.065500 1  74c             Tx   d 8 2b 30 b8 10 22 54 24 6d
3.067000 1  74c             Tx   d 8 2c 00 e2 05 37 02 68 50
3.068400 1  74c             Tx   d 8 2d df 05 17 80 40 c4 6d
3.069900 1  74c             Tx   d 8 2e ff 2a fa da 71 2c c8
3.071400 1  74c             Tx   d 8 2f da 01 3c 08 10 c2 10
3.072900 1  74c             Tx   d 8 20 f4 09 40 48 08 89 20
3.074400 1  74c             Tx   d 8 21 08 08 c2 1f bf 6f f9
3.075900 1  74c             Tx   d 8 22 ff 82 64 aa aa aa aa
3.076700 1  75c             Rx   d 8 04 76 36 08 84 00 00 00
3.079100 1  74c             Tx   d 8 10 80 36 37 40 c4 6d 00
3.079400 1  75c             Rx   d 8 30 00 01 00 00 00 00 00
3.080900 1  74c             Tx   d 8 21 cb 02 3c 05 08 84 40
3.082300 1  74c             Tx   d 8 22 f4 6d 00 b0 02 3c 60
3.083800 1  74c             Tx   d 8 23 bb a0 df fe 5f 0f 2f
3.085300 1  74c             Tx   d 8 24 80 08 cf 8f 8f 20 00
3.086800 1  74c             Tx   d 8 25 08 df 42 f0 53 80 20
3.088300 1  74c             Tx   d 8 26 f0 91 10 01 28 d9 22
3.089800 1  74c             Tx   d 8 27 30 98 10 22 54 24 6d
3.091300 1  74c             Tx   d 8 28 00 0c 05 37 02 68 50
3.092800 1  74c             Tx   d 8 29 df 05 17 80 40 c4 6d
3.094400 1  74c             Tx   d 8 2a ff f9 f9 da 71 2c c8
3.096200 1  74c             Tx   d 8 2b da 01 3c 08 10 c2 10
3.097700 1  74c             Tx   d 8 2c f4 09 40 48 08 89 20
3.099200 1  74c             Tx   d 8 2d 08 08 c2 1f bf 6f f9
3.100700 1  74c             Tx   d 8 2e ff 82 64 40 c4 6d 00
3.102200 1  74c             Tx   d 8 2f 9a 02 3c 05 08 84 40
3.103700 1  74c             Tx   d 8 20 f4 6d 00 7f 02 3c 2f
3.105200 1  74c             Tx   d 8 21 3b 30 20 f0 5f 0f 2c
3.106700 1  74c             Tx   d 8 22 80 91 00 aa aa aa aa
3.107500 1  75c             Rx   d 8 04 76 37 40 c4 00 00 00
3.109200 1  74c             Tx   d 8 10 80 36 38 00 27 d9 22
3.109500 1  75c             Rx   d 8 30 00 01 00 00 00 00 00
3.111200 1  74c             Tx   d 8 21 38 00 da 01 34 2f da
3.112600 1  74c             Tx   d 8 22 71 2c c8 da 01 3c 08
3.114100 1  74c             Tx   d 8 23 10 c2 10 f4 09 40 48
3.115600 1  74c             Tx   d 8 24 08 89 20 08 08 c2 1f
3.117100 1  74c             Tx   d 8 25 bf 4f f9 ff 91 30 00
3.118600 1  74c             Tx   d 8 26 f7 b9 ff fc fd 8f 8f
3.120000 1  74c             Tx   d 8 27 3f 00 89 c0 0c 08 2c
3.121500 1  74c             Tx   d 8 28 cd 91 20 00 f8 09 ff
3.123000 1  74c             Tx   d 8 29 c0 08 8f 8f 3f 00 89
3.124500 1  74c             Tx   d 8 2a c0 0e 08 2c cf 3b 80
3.126000 1  74c             Tx   d 8 2b 00 40 40 c4 6d 00 66
3.127500 1  74c             Tx   d 8 2c 02 3c 08 08 84 3b 20
3.129000 1  74c             Tx   d 8 2d 01 50 40 f4 6d 00 49
3.130400 1  74c             Tx   d 8 2e 02 3c 01 00 90 09 4f
3.132000 1  74c             Tx   d 8 2f c4 08 ff 3f 0a 80 09
3.133400 1  74c             Tx   d 8 20 44 48 08 3b 30 01 50
3.134900 1  74c             Tx   d 8 21 40 54 6d 00 3c 02 3c
3.136400 1  74c             Tx   d 8 22 5e 0c 49 aa aa aa aa
3.137200 1  75c             Rx   d 8 04 76 38 00 27 00 00 00
3.139000 1  74c             Tx   d 8 10 80 36 39 3b f0 0f 00
3.139300 1  75c             Rx   d 8 30 00 01 00 00 00 00 00
3.140900 1  74c             Tx   d 8 21 3f f0 53 80 0c 4a 3b
3.142400 1  74c             Tx   d 8 22 f0 0f 00 3f f0 4e 80
3.143900 1  74c             Tx   d 8 23 09 4f c4 08 ff 9f 42
3.145500 1  74c             Tx   d 8 24 80 0c 4b 3b f0 0f 00
3.147500 1  74c             Tx   d 8 25 3f f0 35 80 91 00 00
3.149500 1  74c             Tx   d 8 26 f7 d9 ff 3c 00 14 ff
3.151000 1  74c             Tx   d 8 27 df 1f 26 80 da 01 6e
3.153100 1  74c             Tx   d 8 28 1b da 01 6e 11 0c 48
3.154900 1  74c             Tx   d 8 29 8b 0f 04 f0 2c 58 0c
3.156400 1  74c             Tx   d 8 2a 49 16 0f 2c 59 0c 49
3.157900 1  74c             Tx   d 8 2b 16 f0 86 cf 2c 59 82
3.159400 1  74c             Tx   d 8 2c 64 40 54 6d 00 24 02
3.160900 1  74c             Tx   d 8 2d 3c 08 09 44 48 08 3b
3.162400 1  74c             Tx   d 8 2e 00 07 50 40 54 6d 00
3.163800 1  74c             Tx   d 8 2f 06 02 3c 08 09 44 48
3.165300 1  74c             Tx   d 8 20 08 3b 20 02 50 40 54
3.166800 1  74c             Tx   d 8 21 6d 00 fe 01 3c 08 09
3.168300 1  74c             Tx   d 8 22 44 48 08 aa aa aa aa
3.169000 1  75c             Rx   d 8 04 76 39 3b f0 00 00 00
3.170800 1  74c             Tx   d 8 10 80 36 3a 3b 30 03 50
3.171100 1  75c             Rx   d 8 30 00 01 00 00 00 00 00
3.172800 1  74c             Tx   d 8 21 40 54 6d 00 f6 01 3c
3.174300 1  74c             Tx   d 8 22 08 09 44 48 08 3b 10
3.175800 1  74c             Tx   d 8 23 03 50 40 54 6d 00 ee
3.177300 1  74c             Tx   d 8 24 01 3c 08 09 44 48 08
3.178700 1  74c             Tx   d 8 25 3b 30 01 50 40 54 6d
3.180200 1  74c             Tx   d 8 26 00 e6 01 3c 08 09 44
3.181700 1  74c             Tx   d 8 27 48 08 3b 10 03 50 40
3.183200 1  74c             Tx   d 8 28 54 6d 00 de 01 00 90
3.184700 1  74c             Tx   d 8 29 40 4c 40 5d 82 04 82
3.186200 1  74c             Tx   d 8 2a 05 0c c9 8f ff 00 81
3.187600 1  74c             Tx   d 8 2b 0c c9 16 f0 8f cf 3f
3.189100 1  74c             Tx   d 8 2c 90 82 00 3c 08 8f 84
3.190600 1  74c             Tx   d 8 2d 00 40 9a 20 10 cf 08
3.192100 1  74c             Tx   d 8 2e 8f 42 f4 c2 10 3f 80
3.193600 1  74c             Tx   d 8 2f f9 ff 82 00 3c 0d 8f
3.195100 1  74c             Tx   d 8 20 85 20 10 37 01 70 10
3.196600 1  74c             Tx   d 8 21 9a 28 42 0f 10 cf 08
3.198000 1  74c             Tx   d 8 22 8f 42 f1 aa aa aa aa
3.198800 1  75c             Rx   d 8 04 76 3a 3b 30 00 00 00
3.200600 1  74c             Tx   d 8 10 80 36 3b 37 01 70 50
3.200900 1  75c             Rx   d 8 30 00 01 00 00 00 00 00
3.202500 1  74c             Tx   d 8 21 c2 10 3f 90 f4 ff 91
3.204100 1  74c             Tx   d 8 22 00 00 27 d9 22 44 c0
3.205500 1  74c             Tx   d 8 23 82 00 3c 0a 01 20 00
3.207100 1  74c             Tx   d 8 24 46 9a 28 42 9f 42 0f
3.208500 1  74c             Tx   d 8 25 10 cf 08 8f 34 4f c2
3.210100 1  74c             Tx   d 8 26 10 3f 50 f7 ff 91 10
3.212100 1  74c             Tx   d 8 27 01 f8 d9 ff 30 b8 54
3.214000 1  74c             Tx   d 8 28 ff 3f f4 19 80 91 10
3.215500 1  74c             Tx   d 8 29 01 f8 d9 ff 30 b8 09
3.217000 1  74c             Tx   d 8 2a ff 14 39 7f f4 11 80
3.218400 1  74c             Tx   d 8 2b 91 00 00 f7 d9 ff 24
3.219900 1  74c             Tx   d 8 2c 70 da 02 34 ff 91 00
3.221400 1  74c             Tx   d 8 2d 00 47 d9 44 44 c0 6d
3.222900 1  74c             Tx   d 8 2e 00 5c 06 37 02 68 f0
3.224400 1  74c             Tx   d 8 2f 3c 02 da 02 ee 1d 40
3.226000 1  74c             Tx   d 8 20 d4 6d ff e7 f8 9a 28
3.227800 1  74c             Tx   d 8 21 42 9f ac d2 82 00 3c
3.229300 1  74c             Tx   d 8 22 08 01 d0 aa aa aa aa
3.230100 1  75c             Rx   d 8 04 76 3b 37 01 00 00 00
3.232000 1  74c             Tx   d 8 10 80 36 3c 00 26 01 c0
3.232300 1  75c             Rx   d 8 30 00 01 00 00 00 00 00
3.233800 1  74c             Tx   d 8 21 00 f6 08 8f 2c 28 c2
3.235300 1  74c             Tx   d 8 22 10 09 df c4 08 3f f0
3.236800 1  74c             Tx   d 8 23 f7 ff 0c d8 8b 0f 04
3.238200 1  74c             Tx   d 8 24 f0 2c d8 82 64 40 d4
3.239700 1  74c             Tx   d 8 25 6d 00 81 01 3c 1f 40
3.241200 1  74c             Tx   d 8 26 d4 6d ff cb f8 da 7f
3.242700 1  74c             Tx   d 8 27 2c d8 da 01 3c 09 10
3.244200 1  74c             Tx   d 8 28 d2 10 cf 08 70 89 20
3.245700 1  74c             Tx   d 8 29 08 08 c2 1f 37 0f 68
3.247200 1  74c             Tx   d 8 2a f0 09 d0 c4 08 c2 10
3.248700 1  74c             Tx   d 8 2b 3f 0f f5 7f 0c c8 8b
3.250100 1  74c             Tx   d 8 2c 0f 04 f0 37 0f 68 40
3.251600 1  74c             Tx   d 8 2d 3b 40 02 50 40 d4 6d
3.253300 1  74c             Tx   d 8 2e 00 4c 01 00 90 09 4f
3.254700 1  74c             Tx   d 8 2f c4 08 bf 3f 0a 80 09
3.256200 1  74c             Tx   d 8 20 44 48 08 3b 30 01 50
3.257700 1  74c             Tx   d 8 21 40 54 6d 00 40 01 3c
3.259200 1  74c             Tx   d 8 22 1a 0c 49 aa aa aa aa
3.260000 1  75c             Rx   d 8 04 76 3c 00 26 00 00 00
3.261700 1  74c             Tx   d 8 10 80 36 3d ee 0c 0c 48
3.262000 1  75c             Rx   d 8 30 00 01 00 00 00 00 00
3.263700 1  74c             Tx   d 8 21 8b 0f 04 f0 2c 58 0c
3.265200 1  74c             Tx   d 8 22 49 2c 59 82 24 40 54
3.266700 1  74c             Tx   d 8 23 6d 00 49 01 3c 0d 0c
3.268100 1  74c             Tx   d 8 24 49 3b 00 08 00 7e 02
3.269800 1  74c             Tx   d 8 25 3c 08 09 44 48 08 3b
3.271300 1  74c             Tx   d 8 26 20 01 50 40 54 6d 00
3.273300 1  74c             Tx   d 8 27 26 01 00 90 09 4f c4
3.274900 1  74c             Tx   d 8 28 08 bf 3f 0a 80 09 44
3.276900 1  74c             Tx   d 8 29 48 08 3b 30 01 50 40
3.278800 1  74c             Tx   d 8 2a 54 6d 00 1a 01 3c 31
3.280300 1  74c             Tx   d 8 2b 0c 49 82 10 3e 04 82
3.281800 1  74c             Tx   d 8 2c 20 be 03 3c 23 91 00
3.283300 1  74c             Tx   d 8 2d 00 f7 d9 ff 00 10 da
3.284800 1  74c             Tx   d 8 2e 01 34 ff 0c 48 8b 0f
3.286300 1  74c             Tx   d 8 2f 04 f0 2c 58 0c 49 2c
3.287700 1  74c             Tx   d 8 20 59 82 24 40 54 6d 00
3.289300 1  74c             Tx   d 8 21 19 01 3c 1a 91 00 00
3.290700 1  74c             Tx   d 8 22 f7 d9 ff aa aa aa aa
3.291500 1  75c             Rx   d 8 04 76 3d ee 0c 00 00 00
3.293500 1  74c             Tx   d 8 10 80 36 3e 00 10 da 00
3.293800 1  75c             Rx   d 8 30 00 01 00 00 00 00 00
3.295700 1  74c             Tx   d 8 21 34 ff 0c 48 8b 0f 04
3.297200 1  74c             Tx   d 8 22 f0 2c 58 0c 49 2c 59
3.298700 1  74c             Tx   d 8 23 82 24 40 54 6d 00 08
3.300200 1  74c             Tx   d 8 24 01 3c 09 09 44 48 08
3.301600 1  74c             Tx   d 8 25 3b 20 01 50 40 54 6d
3.303100 1  74c             Tx   d 8 26 00 ea 00 3c 01 00 90
3.304600 1  74c             Tx   d 8 27 82 08 91 00 00 f7 d9
3.306100 1  74c             Tx   d 8 28 ff 08 b0 39 f0 2c 80
3.307600 1  74c             Tx   d 8 29 da 10 5f 0f 22 00 da
3.309100 1  74c             Tx   d 8 2a 11 5f 0f 2f 00 da 22
3.310600 1  74c             Tx   d 8 2b 5f 0f 3c 00 da 23 5f
3.312000 1  74c             Tx   d 8 2c 0f 49 00 da 27 5f 0f
3.313500 1  74c             Tx   d 8 2d 55 00 da 28 5f 0f 61
3.315000 1  74c             Tx   d 8 2e 00 da 31 5f 0f 6d 00
3.316500 1  74c             Tx   d 8 2f da 34 5f 0f 79 00 da
3.318000 1  74c             Tx   d 8 20 3d 5f 0f 85 00 da 3e
3.319500 1  74c             Tx   d 8 21 5f 0f 91 00 da 85 5f
3.321000 1  74c             Tx   d 8 22 0f 9d 00 aa aa aa aa
3.321800 1  75c             Rx   d 8 04 76 3e 00 10 00 00 00
3.323500 1  74c             Tx   d 8 10 80 36 3f 1d 00 aa 00
3.323800 1  75c             Rx   d 8 30 00 01 00 00 00 00 00
3.325500 1  74c             Tx   d 8 21 91 00 00 f7 d9 ff 08
3.327000 1  74c             Tx   d 8 22 b0 d9 f4 24 80 91 00
3.328400 1  74c             Tx   d 8 23 00 f7 d9 ff 08 b0 49
3.329900 1  74c             Tx   d 8 24 f5 1c 0a 6d ff 58 fa
3.331500 1  74c             Tx   d 8 25 1d 00 ab 00 91 00 00
3.333400 1  74c             Tx   d 8 26 f7 d9 ff 08 b0 d9 f4
3.335000 1  74c             Tx   d 8 27 24 80 91 00 00 f7 d9
3.336700 1  74c             Tx   d 8 28 ff 08 b0 49 f5 1c 0a
3.338700 1  74c             Tx   d 8 29 6d ff 40 fb 1d 00 9b
3.340600 1  74c             Tx   d 8 2a 00 91 00 00 f7 d9 ff
3.342600 1  74c             Tx   d 8 2b 08 b0 d9 f4 24 80 91
3.344100 1  74c             Tx   d 8 2c 00 00 f7 d9 ff 08 b0
3.345600 1  74c             Tx   d 8 2d 49 f5 1c 0a 6d ff 62
3.347000 1  74c             Tx   d 8 2e fb 1d 00 8b 00 91 00
3.348500 1  74c             Tx   d 8 2f 00 f7 d9 ff 08 b0 d9
3.350000 1  74c             Tx   d 8 20 f4 24 80 91 00 00 f7
3.351500 1  74c             Tx   d 8 21 d9 ff 08 b0 49 f5 1c
3.353000 1  74c             Tx   d 8 22 0a 6d ff aa aa aa aa
3.353800 1  75c             Rx   d 8 04 76 3f 1d 00 00 00 00
3.355400 1  74c             Tx   d 8 10 80 36 40 4f fc 3c 7b
3.355700 1  75c             Rx   d 8 30 00 01 00 00 00 00 00
3.357400 1  74c             Tx   d 8 21 91 00 00 f7 d9 ff 08
3.358900 1  74c             Tx   d 8 22 b0 d9 f4 24 80 91 00
3.360400 1  74c             Tx   d 8 23 00 f7 d9 ff 08 b0 49
3.361900 1  74c             Tx   d 8 24 f5 1c 0a 6d ff 9a fc
3.363400 1  74c             Tx   d 8 25 3c 6c 91 00 00 f7 d9
3.364900 1  74c             Tx   d 8 26 ff 08 b0 d9 f4 24 80
3.366400 1  74c             Tx   d 8 27 91 00 00 f7 d9 ff 08
3.367800 1  74c             Tx   d 8 28 b0 49 f5 1c 0a 6d ff
3.369300 1  74c             Tx   d 8 29 e8 fc 3c 5d 91 00 00
3.370800 1  74c             Tx   d 8 2a f7 d9 ff 08 b0 d9 f4
3.372300 1  74c             Tx   d 8 2b 24 80 91 00 00 f7 d9
3.373800 1  74c             Tx   d 8 2c ff 08 b0 49 f5 1c 0a
3.375300 1  74c             Tx   d 8 2d 6d ff 47 fd 3c 4e 91
3.376800 1  74c             Tx   d 8 2e 00 00 f7 d9 ff 08 b0
3.378300 1  74c             Tx   d 8 2f d9 f4 24 80 91 00 00
3.379700 1  74c             Tx   d 8 20 f7 d9 ff 08 b0 49 f5
3.381200 1  74c             Tx   d 8 21 1c 0a 6d ff ff fd 3c
3.382700 1  74c             Tx   d 8 22 3f 91 00 aa aa aa aa
3.383500 1  75c             Rx   d 8 04 76 40 4f fc 00 00 00
3.385300 1  74c             Tx   d 8 10 80 36 41 00 f7 d9 ff
3.385600 1  75c             Rx   d 8 30 00 01 00 00 00 00 00
3.387200 1  74c             Tx   d 8 21 08 b0 d9 f4 24 80 91
3.388700 1  74c             Tx   d 8 22 00 00 f7 d9 ff 08 b0
3.390200 1  74c             Tx   d 8 23 49 f5 1c 0a 6d ff 5a
3.391700 1  74c             Tx   d 8 24 fe 3c 30 91 00 00 f7
3.393700 1  74c             Tx   d 8 25 d9 ff 08 b0 d9 f4 24
3.395200 1  74c             Tx   d 8 26 80 91 00 00 f7 d9 ff
3.396800 1  74c             Tx   d 8 27 08 b0 49 f5 1c 0a 6d
3.398800 1  74c             Tx   d 8 28 ff dd fe 3c 21 91 00
3.400700 1  74c             Tx   d 8 29 00 f7 d9 ff 08 b0 d9
3.402200 1  74c             Tx   d 8 2a f4 24 80 91 00 00 f7
3.403600 1  74c             Tx   d 8 2b d9 ff 08 b0 49 f5 1c
3.405100 1  74c             Tx   d 8 2c 0a 6d ff f4 fe 3c 12
3.406600 1  74c             Tx   d 8 2d 91 00 00 f7 d9 ff 08
3.408100 1  74c             Tx   d 8 2e b0 49 f4 1c 0a 91 00
3.409600 1  74c             Tx   d 8 2f 00 f7 d9 ff 08 b0 39
3.411100 1  74c             Tx   d 8 20 f4 2c 80 3b 20 02 50
3.412600 1  74c             Tx   d 8 21 6d 00 06 00 3c 01 02
3.414000 1  74c             Tx   d 8 22 82 3c 01 aa aa aa aa
3.414800 1  75c             Rx   d 8 04 76 41 00 f7 00 00 00
3.416500 1  74c             Tx   d 8 10 80 36 42 00 90 40 45
3.416800 1  75c             Rx   d 8 30 00 01 00 00 00 00 00
3.418500 1  74c             Tx   d 8 21 da 03 34 5f da aa 2c
3.420000 1  74c             Tx   d 8 22 51 da 03 ac 52 da 7f
3.421500 1  74c             Tx   d 8 23 2c 58 89 54 09 08 89
3.423000 1  74c             Tx   d 8 24 55 0a 08 91 00 00 f7
3.424500 1  74c             Tx   d 8 25 d9 ff b8 70 d9 f4 0c
3.426000 1  74c             Tx   d 8 26 11 6d ff 5d f7 00 90
3.427400 1  74c             Tx   d 8 27 40 45 da 03 34 5f da
3.428900 1  74c             Tx   d 8 28 aa 2c 51 ff 64 05 80
3.430400 1  74c             Tx   d 8 29 da 06 ac 52 3c 03 89
3.431900 1  74c             Tx   d 8 2a 54 84 08 3c 08 01 54
3.433400 1  74c             Tx   d 8 2b 00 f6 da 55 2c f8 c2
3.434900 1  74c             Tx   d 8 2c 14 37 04 68 40 09 5f
3.436400 1  74c             Tx   d 8 2d c4 08 3f f4 f7 ff 91
3.437800 1  74c             Tx   d 8 2e 00 00 f7 d9 ff b8 70
3.439300 1  74c             Tx   d 8 2f d9 f4 0c 11 6d ff 3c
3.440800 1  74c             Tx   d 8 20 f7 00 90 02 43 02 5f
3.442300 1  74c             Tx   d 8 21 82 02 7b 00 00 07 3f
3.443800 1  74c             Tx   d 8 22 03 19 80 aa aa aa aa
3.444600 1  75c             Rx   d 8 04 76 42 00 90 00 00 00
3.446300 1  74c             Tx   d 8 10 80 36 43 bb f0 ff 0d
3.446600 1  75c             Rx   d 8 30 00 01 00 00 00 00 00
3.448300 1  74c             Tx   d 8 21 9b 20 00 07 3f 30 13
3.449700 1  74c             Tx   d 8 22 80 82 40 4b 03 11 02
3.451300 1  74c             Tx   d 8 23 76 13 8f 12 40 21 42
3.453000 1  74c             Tx   d 8 24 3f c2 ff bb f0 ff 0d
3.455000 1  74c             Tx   d 8 25 9b 20 00 07 7f f0 04
3.456500 1  74c             Tx   d 8 26 80 8f 22 40 21 3c 48
3.458400 1  74c             Tx   d 8 27 91 10 01 f8 d9 ff 30
3.459900 1  74c             Tx   d 8 28 b8 54 f0 3f 03 1e 80
3.461300 1  74c             Tx   d 8 29 91 10 01 f8 d9 ff 30
3.462800 1  74c             Tx   d 8 2a b8 09 f0 14 39 3f 30
3.464300 1  74c             Tx   d 8 2b 16 80 82 40 4b 03 11
3.465800 1  74c             Tx   d 8 2c 02 76 13 8f 12 40 21
3.467300 1  74c             Tx   d 8 2d 42 3f c2 ff 91 10 01
3.468800 1  74c             Tx   d 8 2e f8 d9 ff 30 b8 09 f0
3.470300 1  74c             Tx   d 8 2f 14 39 c2 f0 3f 0f 04
3.471700 1  74c             Tx   d 8 20 80 8f 22 40 21 3c 25
3.473200 1  74c             Tx   d 8 21 91 10 01 f8 d9 ff 30
3.474700 1  74c             Tx   d 8 22 98 54 f0 aa aa aa aa
3.475500 1  75c             Rx   d 8 04 76 43 bb f0 00 00 00
3.477500 1  74c             Tx   d 8 10 80 36 44 3f 03 1d 80
3.477800 1  75c             Rx   d 8 30 00 01 00 00 00 00 00
3.479700 1  74c             Tx   d 8 21 91 10 01 f8 d9 ff 30
3.481200 1  74c             Tx   d 8 22 98 09 f0 3c 19 3f 30
3.482700 1  74c             Tx   d 8 23 15 80 82 40 4b 03 11
3.484200 1  74c             Tx   d 8 24 02 76 13 8f 12 40 21
3.485600 1  74c             Tx   d 8 25 42 f3 c2 f3 91 10 01
3.487200 1  74c             Tx   d 8 26 f8 d9 ff 30 98 09 ff
3.488600 1  74c             Tx   d 8 27 3c 19 7f 3f 04 80 8f
3.490100 1  74c             Tx   d 8 28 22 40 21 3c 03 8f 12
3.491600 1  74c             Tx   d 8 29 40 21 3c 01 00 90 da
3.493100 1  74c             Tx   d 8 2a 00 82 00 bf 14 11 80
3.494600 1  74c             Tx   d 8 2b ff 54 0f 80 da 00 3c
3.496100 1  74c             Tx   d 8 2c 07 10 4f 14 f1 8f 80
3.497500 1  74c             Tx   d 8 2d 00 00 42 10 c2 1f 3f
3.499000 1  74c             Tx   d 8 2e 4f fa 7f 74 50 82 02
3.500500 1  74c             Tx   d 8 2f 3c 03 8f 2f 40 21 3c
3.502000 1  74c             Tx   d 8 20 01 00 90 02 42 3c 01
3.503500 1  74c             Tx   d 8 21 00 90 a0 04 6d 00 61
3.505000 1  74c             Tx   d 8 22 13 37 02 aa aa aa aa
3.505800 1  75c             Rx   d 8 04 76 44 3f 03 00 00 00
3.507500 1  74c             Tx   d 8 10 80 36 45 68 40 6d 00
3.507800 1  75c             Rx   d 8 30 00 01 00 00 00 00 00
3.509500 1  74c             Tx   d 8 21 58 13 82 08 da ff 6d
3.511000 1  74c             Tx   d 8 22 00 43 13 c2 0f c2 1f
3.512400 1  74c             Tx   d 8 23 4b f2 01 02 42 18 37
3.513900 1  74c             Tx   d 8 24 08 68 20 3c 01 00 90
3.515600 1  74c             Tx   d 8 25 6d 00 f6 10 00 90 91
3.517500 1  74c             Tx   d 8 26 00 00 f7 d9 ff b4 92
3.519200 1  74c             Tx   d 8 27 d4 ff 48 4f 3c 01 91
3.521100 1  74c             Tx   d 8 28 00 00 f7 d9 ff 84 40
3.523000 1  74c             Tx   d 8 29 74 ff 91 00 00 f7 d9
3.525000 1  74c             Tx   d 8 2a ff 84 40 91 00 00 27
3.527000 1  74c             Tx   d 8 2b d9 22 84 40 09 20 04
3.528600 1  74c             Tx   d 8 2c 09 52 00 68 20 91 00
3.530400 1  74c             Tx   d 8 2d 00 f7 d9 ff 84 40 6c
3.532200 1  74c             Tx   d 8 2e f1 91 00 00 f7 d9 ff
3.533900 1  74c             Tx   d 8 2f 04 10 91 00 00 27 d9
3.535600 1  74c             Tx   d 8 20 22 ac 60 54 20 a2 0f
3.537600 1  74c             Tx   d 8 21 74 ff 91 00 00 f7 d9
3.539900 1  74c             Tx   d 8 22 ff 04 10 aa aa aa aa
3.540700 1  75c             Rx   d 8 04 76 45 68 40 00 00 00
3.542600 1  74c             Tx   d 8 10 80 36 46 54 ff bb 00
3.542900 1  75c             Rx   d 8 30 00 01 00 00 00 00 00
3.544800 1  74c             Tx   d 8 21 35 0c 3f 0f 71 80 91
3.546900 1  74c             Tx   d 8 22 00 00 f7 d9 ff ac 60
3.548800 1  74c             Tx   d 8 23 91 00 00 27 d9 22 ac
3.550300 1  74c             Tx   d 8 24 60 54 2f bb 00 35 0c
3.551800 1  74c             Tx   d 8 25 42 0f 74 ff 91 00 00
3.553700 1  74c             Tx   d 8 26 f7 d9 ff b0 60 91 00
3.555200 1  74c             Tx   d 8 27 00 27 d9 22 b0 60 54
3.556700 1  74c             Tx   d 8 28 2f c2 1f 74 ff 6d ff
3.558200 1  74c             Tx   d 8 29 6e ef 91 00 00 f7 d9
3.559800 1  74c             Tx   d 8 2a ff b0 60 54 f0 da 64
3.561200 1  74c             Tx   d 8 2b 4b f0 11 02 f6 12 3c
3.562600 1  74c             Tx   d 8 2c 01 91 00 00 f7 d9 ff
3.564100 1  74c             Tx   d 8 2d b0 60 54 ff 16 03 ee
3.565600 1  74c             Tx   d 8 2e 02 3c 44 91 00 00 f7
3.567100 1  74c             Tx   d 8 2f d9 ff b0 60 54 ff 16
3.568600 1  74c             Tx   d 8 20 03 df 1f 2e 80 91 00
3.570100 1  74c             Tx   d 8 21 00 f7 d9 ff bc 60 3b
3.571600 1  74c             Tx   d 8 22 30 12 f0 aa aa aa aa
3.572400 1  75c             Rx   d 8 04 76 46 54 ff 00 00 00
3.574100 1  74c             Tx   d 8 10 80 36 47 b4 ff 91 00
3.574400 1  75c             Rx   d 8 30 00 01 00 00 00 00 00
3.576100 1  74c             Tx   d 8 21 00 f7 d9 ff bc 60 da
3.577500 1  74c             Tx   d 8 22 01 2c f2 91 00 00 f7
3.579000 1  74c             Tx   d 8 23 d9 ff bc 60 da 01 2c
3.580500 1  74c             Tx   d 8 24 f3 91 00 00 f7 d9 ff
3.582000 1  74c             Tx   d 8 25 bc 60 da 01 2c f4 91
3.583500 1  74c             Tx   d 8 26 00 00 f7 d9 ff bc 60
3.585000 1  74c             Tx   d 8 27 da 01 2c f5 91 00 00
3.586500 1  74c             Tx   d 8 28 f7 d9 ff bc 60 da 01
3.588000 1  74c             Tx   d 8 29 2c f6 91 00 00 47 d9
3.589500 1  74c             Tx   d 8 2a 44 bc 60 6d ff e4 f4
3.590900 1  74c             Tx   d 8 2b 3c 10 91 00 00 f7 d9
3.592400 1  74c             Tx   d 8 2c ff b0 60 54 ff 16 03
3.593900 1  74c             Tx   d 8 2d 5e 22 3c 08 91 00 00
3.595400 1  74c             Tx   d 8 2e f7 d9 ff b0 60 54 ff
3.596900 1  74c             Tx   d 8 2f 16 03 5e 31 00 90 6d
3.598500 1  74c             Tx   d 8 20 00 ee 0e 02 24 6d 00
3.600400 1  74c             Tx   d 8 21 97 0d 6d 00 fd 0e 02
3.602000 1  74c             Tx   d 8 22 24 6d 00 aa aa aa aa
3.602800 1  75c             Rx   d 8 04 76 47 b4 ff 00 00 00
3.604900 1  74c             Tx   d 8 10 80 36 48 d6 0d 4d c0
3.605200 1  75c             Rx   d 8 30 00 01 00 00 00 00 00
3.607000 1  74c             Tx   d 8 21 e2 ff 3c 01 0d 00 40
3.608400 1  74c             Tx   d 8 22 03 00 00 3c 01 6d 00
3.610000 1  74c             Tx   d 8 23 61 0f 6d 00 1f 11 6d
3.611500 1  74c             Tx   d 8 24 ff d5 f2 91 00 00 f7
3.613200 1  74c             Tx   d 8 25 d9 ff b8 60 91 30 00
3.615200 1  74c             Tx   d 8 26 2f 19 2f 10 16 74 ff
3.617100 1  74c             Tx   d 8 27 91 00 00 f7 d9 ff b4
3.618600 1  74c             Tx   d 8 28 60 91 00 00 27 d9 22
3.620300 1  74c             Tx   d 8 29 b8 60 54 2f 16 01 8b
3.621800 1  74c             Tx   d 8 2a 0f 20 f2 34 ff 6d ff
3.623500 1  74c             Tx   d 8 2b 5f f0 0d 00 00 03 3c
3.625100 1  74c             Tx   d 8 2c 05 6d ff 2d ff 6d ff
3.627100 1  74c             Tx   d 8 2d cb f2 3c fc 00 90 91
3.628700 1  74c             Tx   d 8 2e 00 00 f7 d9 ff 2c 10
3.630500 1  74c             Tx   d 8 2f 54 ff 6e 2f 91 00 00
3.632200 1  74c             Tx   d 8 20 f7 d9 ff 2c 10 54 ff
3.633800 1  74c             Tx   d 8 21 91 00 00 f7 d9 ff 0c
3.635300 1  74c             Tx   d 8 22 10 10 f4 aa aa aa aa
3.636000 1  75c             Rx   d 8 04 76 48 d6 0d 00 00 00
3.637700 1  74c             Tx   d 8 10 80 36 49 82 04 91 00
3.638000 1  75c             Rx   d 8 30 00 01 00 00 00 00 00
3.639700 1  74c             Tx   d 8 21 00 f7 d9 ff 2c 10 54
3.641200 1  74c             Tx   d 8 22 ff 8b 0f 02 51 6d 00
3.642700 1  74c             Tx   d 8 23 19 12 91 00 00 f7 d9
3.644200 1  74c             Tx   d 8 24 ff 08 10 54 f4 91 00
3.645700 1  74c             Tx   d 8 25 00 47 d9 44 0c 10 6d
3.647200 1  74c             Tx   d 8 26 00 7d 01 f6 29 91 00
3.648700 1  74c             Tx   d 8 27 00 f7 d9 ff 2c 10 da
3.650100 1  74c             Tx   d 8 28 00 74 ff 82 02 3c 09
3.651600 1  74c             Tx   d 8 29 91 00 00 f7 d9 ff 2c
3.653100 1  74c             Tx   d 8 2a 10 da 00 74 ff 82 12
3.654600 1  74c             Tx   d 8 2b 3c 01 00 90 91 00 01
3.656100 1  74c             Tx   d 8 2c 47 91 00 01 58 d9 55
3.657600 1  74c             Tx   d 8 2d 3e 73 3b 00 10 40 6d
3.659100 1  74c             Tx   d 8 2e 00 c0 11 91 00 00 f7
3.660600 1  74c             Tx   d 8 2f d9 ff 88 70 91 00 01
3.662100 1  74c             Tx   d 8 20 27 f4 f2 91 00 01 47
3.663600 1  74c             Tx   d 8 21 49 44 00 4a 91 00 01
3.665000 1  74c             Tx   d 8 22 58 d9 55 aa aa aa aa
3.665700 1  75c             Rx   d 8 04 76 49 82 04 00 00 00
3.667600 1  74c             Tx   d 8 10 80 36 4a 06 93 3b 00
3.667900 1  75c             Rx   d 8 30 00 01 00 00 00 00 00
3.669500 1  74c             Tx   d 8 21 10 40 6d 00 ad 11 91
3.671000 1  74c             Tx   d 8 22 00 00 f7 d9 ff 88 70
3.672500 1  74c             Tx   d 8 23 91 00 01 27 49 22 00
3.674000 1  74c             Tx   d 8 24 4a e8 12 91 00 01 47
3.675400 1  74c             Tx   d 8 25 d9 44 00 80 91 00 01
3.677000 1  74c             Tx   d 8 26 58 d9 55 08 73 3b 00
3.678900 1  74c             Tx   d 8 27 10 40 6d 00 98 11 91
3.680400 1  74c             Tx   d 8 28 00 00 f7 d9 ff 88 70
3.682000 1  74c             Tx   d 8 29 91 00 01 27 d9 22 00
3.684000 1  74c             Tx   d 8 2a 80 e8 22 91 00 01 47
3.685800 1  74c             Tx   d 8 2b d9 44 00 c0 91 00 01
3.687400 1  74c             Tx   d 8 2c 58 d9 55 30 83 3b 00
3.689600 1  74c             Tx   d 8 2d 10 40 6d 00 83 11 91
3.691200 1  74c             Tx   d 8 2e 00 00 f7 d9 ff 88 70
3.693000 1  74c             Tx   d 8 2f 91 00 01 27 d9 22 00
3.694500 1  74c             Tx   d 8 20 c0 e8 32 91 00 01 47
3.696400 1  74c             Tx   d 8 21 d9 44 40 00 91 00 01
3.697900 1  74c             Tx   d 8 22 58 d9 55 aa aa aa aa
3.698700 1  75c             Rx   d 8 04 76 4a 06 93 00 00 00
3.700400 1  74c             Tx   d 8 10 80 36 4b 2c 93 3b 00
3.700700 1  75c             Rx   d 8 30 00 01 00 00 00 00 00
3.702300 1  74c             Tx   d 8 21 10 40 6d 00 6e 11 91
3.703800 1  74c             Tx   d 8 22 00 00 f7 d9 ff 88 70
3.705300 1  74c             Tx   d 8 23 91 00 01 27 d9 22 40
3.706800 1  74c             Tx   d 8 24 00 e8 42 91 00 01 47
3.708300 1  74c             Tx   d 8 25 d9 44 40 40 91 00 01
3.709800 1  74c             Tx   d 8 26 58 d9 55 6a 52 3b 00
3.711800 1  74c             Tx   d 8 27 20 40 6d 00 59 11 91
3.713200 1  74c             Tx   d 8 28 00 00 f7 d9 ff 88 70
3.714700 1  74c             Tx   d 8 29 91 00 01 27 d9 22 40
3.716200 1  74c             Tx   d 8 2a 40 e8 52 91 00 01 47
3.717700 1  74c             Tx   d 8 2b d9 44 40 c0 91 00 01
3.719200 1  74c             Tx   d 8 2c 58 d9 55 9c 12 3b 00
3.720700 1  74c             Tx   d 8 2d 20 40 6d 00 44 11 91
3.722200 1  74c             Tx   d 8 2e 00 00 f7 d9 ff 88 70
3.723700 1  74c             Tx   d 8 2f 91 00 01 27 d9 22 40
3.725200 1  74c             Tx   d 8 20 c0 e8 62 3c 01 00 90
3.726700 1  74c             Tx   d 8 21 02 4f 6d 00 01 0e 02
3.728200 1  74c             Tx   d 8 22 28 4d c0 aa aa aa aa
3.729000 1  75c             Rx   d 8 04 76 4b 2c 93 00 00 00
3.730700 1  74c             Tx   d 8 10 80 36 4c e2 0f 3c 01
3.731000 1  75c             Rx   d 8 30 00 01 00 00 00 00 00
3.732600 1  74c             Tx   d 8 21 0d 00 40 03 00 00 3c
3.734100 1  74c             Tx   d 8 22 01 02 84 6d 00 5f 0c
3.735600 1  74c             Tx   d 8 23 82 10 91 10 f0 fa d9
3.737100 1  74c             Tx   d 8 24 ff 90 9a 91 10 f0 2a
3.738600 1  74c             Tx   d 8 25 d9 22 98 9a 91 10 f0
