date Fri May 08 05:57:55.781 PM 2026
base hex timestamps absolute
// version 7.0.0
0.284000 1  74c             Tx   d 8 02 10 01 aa aa aa aa aa
0.284400 1  75c             Rx   d 8 02 50 01 00 00 00 00 00
0.286100 1  74c             Tx   d 8 02 10 03 aa aa aa aa aa
0.286500 1  75c             Rx   d 8 02 50 03 00 00 00 00 00
0.288100 1  74c             Tx   d 8 02 27 01 aa aa aa aa aa
0.288400 1  75c             Rx   d 8 06 67 01 cc 66 33 19 00
0.321100 1  74c             Tx   d 8 06 27 02 96 aa 95 2b aa
0.321500 1  75c             Rx   d 8 02 67 02 00 00 00 00 00
0.322900 1  74c             Tx   d 8 04 31 01 df fd aa aa aa
0.323300 1  75c             Rx   d 8 05 71 01 ff fd ff 00 00
0.324800 1  74c             Tx   d 8 02 85 02 aa aa aa aa aa
0.325200 1  75c             Rx   d 8 02 c5 02 00 00 00 00 00
0.327000 1  74c             Tx   d 8 02 10 02 aa aa aa aa aa
0.327400 1  75c             Rx   d 8 02 50 02 00 00 00 00 00
0.328900 1  74c             Tx   d 8 02 27 03 aa aa aa aa aa
0.329300 1  75c             Rx   d 8 06 67 03 91 48 a4 52 00
0.362700 1  74c             Tx   d 8 06 27 04 e7 88 8c 87 aa
0.363100 1  75c             Rx   d 8 02 67 04 00 00 00 00 00
0.364600 1  74c             Tx   d 8 05 2e f1 5a 55 55 aa aa
0.364900 1  75c             Rx   d 8 03 6e f1 5a 00 00 00 00
0.366600 1  74c             Tx   d 8 06 31 01 ff 00 00 08 aa
0.561200 1  75c             Rx   d 8 06 71 01 ff 00 08 01 00
0.613300 1  74c             Tx   d 8 06 31 01 ff 00 00 09 aa
0.784300 1  7df             Tx   d 8 02 3e 80 aa aa aa aa aa
0.807800 1  75c             Rx   d 8 06 71 01 ff 00 09 01 00
0.860000 1  74c             Tx   d 8 06 31 01 ff 00 00 0a aa
1.054500 1  75c             Rx   d 8 06 71 01 ff 00 0a 01 00
1.106100 1  74c             Tx   d 8 06 31 01 ff 00 00 0b aa
1.300700 1  75c             Rx   d 8 06 71 01 ff 00 0b 01 00
1.352800 1  74c             Tx   d 8 06 31 01 ff 00 00 0c aa
1.547400 1  75c             Rx   d 8 06 71 01 ff 00 0c 01 00
1.599300 1  74c             Tx   d 8 06 31 01 ff 00 00 0d aa
1.793900 1  75c             Rx   d 8 06 71 01 ff 00 0d 01 00
1.845200 1  74c             Tx   d 8 06 31 01 ff 00 00 0e aa
2.039800 1  75c             Rx   d 8 06 71 01 ff 00 0e 01 00
2.092200 1  74c             Tx   d 8 06 31 01 ff 00 00 0f aa
2.286800 1  75c             Rx   d 8 06 71 01 ff 00 0f 01 00
2.338800 1  74c             Tx   d 8 06 31 01 ff 00 00 10 aa
2.534700 1  75c             Rx   d 8 06 71 01 ff 00 10 01 00
2.586900 1  74c             Tx   d 8 06 31 01 ff 00 00 11 aa
2.782700 1  75c             Rx   d 8 06 71 01 ff 00 11 01 00
2.834800 1  74c             Tx   d 8 06 31 01 ff 00 00 12 aa
3.030600 1  75c             Rx   d 8 06 71 01 ff 00 12 01 00
3.082700 1  74c             Tx   d 8 06 31 01 ff 00 00 13 aa
3.278600 1  75c             Rx   d 8 06 71 01 ff 00 13 01 00
3.330700 1  74c             Tx   d 8 06 31 01 ff 00 00 14 aa
3.529200 1  75c             Rx   d 8 06 71 01 ff 00 14 01 00
3.581900 1  74c             Tx   d 8 06 31 01 ff 00 00 15 aa
3.780400 1  75c             Rx   d 8 06 71 01 ff 00 15 01 00
3.831800 1  74c             Tx   d 8 06 31 01 ff 00 00 16 aa
4.030300 1  75c             Rx   d 8 06 71 01 ff 00 16 01 00
4.533700 1  74c             Tx   d 8 10 0b 34 00 44 80 02 00
4.534000 1  75c             Rx   d 8 30 00 01 00 00 00 00 00
4.535900 1  74c             Tx   d 8 21 00 00 00 00 2c aa aa
4.536300 1  75c             Rx   d 8 03 74 10 80 00 00 00 00
4.538500 1  74c             Tx   d 8 10 2e 36 01 20 00 02 a0
4.538800 1  75c             Rx   d 8 30 00 01 00 00 00 00 00
4.540600 1  74c             Tx   d 8 21 70 01 59 b3 20 00 02
4.542600 1  74c             Tx   d 8 22 a0 20 00 02 a0 1c df
4.544200 1  74c             Tx   d 8 23 44 21 e3 20 bb de d3
4.546200 1  74c             Tx   d 8 24 bf cb cd 2c 40 34 32
4.548200 1  74c             Tx   d 8 25 91 40 00 f8 d9 ff 42
4.549900 1  74c             Tx   d 8 26 87 dc 0f 00 90 aa aa
4.550300 1  75c             Rx   d 8 04 76 01 20 00 00 00 00
4.552100 1  74c             Tx   d 8 01 37 aa aa aa aa aa aa
4.552500 1  75c             Rx   d 8 01 77 00 00 00 00 00 00
4.554500 1  74c             Tx   d 8 10 0b 34 00 44 80 02 00
4.554800 1  75c             Rx   d 8 30 00 01 00 00 00 00 00
4.556500 1  74c             Tx   d 8 21 40 00 00 00 a8 aa aa
4.556800 1  75c             Rx   d 8 03 74 10 80 00 00 00 00
4.557900 1  74c             Tx   d 8 10 80 36 01 00 50 03 80
4.558200 1  75c             Rx   d 8 30 00 01 00 00 00 00 00
4.559900 1  74c             Tx   d 8 21 00 00 00 00 00 00 00
4.561400 1  74c             Tx   d 8 22 00 00 00 00 00 00 00
4.562900 1  74c             Tx   d 8 23 00 00 00 00 00 00 00
4.564400 1  74c             Tx   d 8 24 00 00 00 00 00 00 00
4.565900 1  74c             Tx   d 8 25 e9 a6 43 43 c7 2b 14
4.567300 1  74c             Tx   d 8 26 43 aa b1 e2 42 35 1e
4.568800 1  74c             Tx   d 8 27 af 42 58 79 88 42 9a
4.570300 1  74c             Tx   d 8 28 99 56 42 25 06 2a 42
4.571800 1  74c             Tx   d 8 29 68 91 07 42 83 c0 d9
4.573300 1  74c             Tx   d 8 2a 41 02 2b b0 41 73 68
4.574800 1  74c             Tx   d 8 2b 8f 41 b4 c8 6a 41 c7
4.576800 1  74c             Tx   d 8 2c 4b 41 41 00 00 20 41
4.578800 1  74c             Tx   d 8 2d 3d 0a 05 41 04 56 de
4.580300 1  74c             Tx   d 8 2e 40 21 b0 ba 40 10 58
4.581700 1  74c             Tx   d 8 2f 9d 40 e9 26 85 40 71
4.583300 1  74c             Tx   d 8 20 3d 62 40 60 e5 40 40
4.584800 1  74c             Tx   d 8 21 06 81 25 40 8d 97 0e
4.586300 1  74c             Tx   d 8 22 40 66 66 aa aa aa aa
4.587100 1  75c             Rx   d 8 04 76 01 00 50 00 00 00
4.588700 1  74c             Tx   d 8 10 2c 36 02 f6 3f cb a1
4.589000 1  75c             Rx   d 8 30 00 01 00 00 00 00 00
4.590800 1  74c             Tx   d 8 21 d5 3f 23 db b9 3f d3
4.592700 1  74c             Tx   d 8 22 4d a2 3f 7b 14 8e 3f
4.594200 1  74c             Tx   d 8 23 10 58 79 3f e3 a5 5b
4.595700 1  74c             Tx   d 8 24 3f 4a 0c 42 3f 31 08
4.597200 1  74c             Tx   d 8 25 2c 3f 75 93 18 3f 9e
4.598700 1  74c             Tx   d 8 26 ef 07 3f aa aa aa aa
4.599200 1  75c             Rx   d 8 04 76 02 f6 3f 00 00 00
4.600700 1  74c             Tx   d 8 01 37 aa aa aa aa aa aa
4.601100 1  75c             Rx   d 8 01 77 00 00 00 00 00 00
4.603200 1  74c             Tx   d 8 10 0b 34 00 44 80 02 01
4.603500 1  75c             Rx   d 8 30 00 01 00 00 00 00 00
4.605100 1  74c             Tx   d 8 21 00 00 00 00 30 aa aa
4.605500 1  75c             Rx   d 8 03 74 10 80 00 00 00 00
4.607700 1  74c             Tx   d 8 10 32 36 01 00 00 10 f0
4.608000 1  75c             Rx   d 8 30 00 01 00 00 00 00 00
4.609600 1  74c             Tx   d 8 21 00 01 02 01 0a 00 01
4.611100 1  74c             Tx   d 8 22 00 00 00 00 03 00 00
4.612600 1  74c             Tx   d 8 23 00 00 00 00 20 41 00
4.614500 1  74c             Tx   d 8 24 00 20 41 01 00 00 00
4.616000 1  74c             Tx   d 8 25 fc eb 04 80 00 00 00
4.617500 1  74c             Tx   d 8 26 00 00 00 00 00 00 00
4.619000 1  74c             Tx   d 8 27 00 00 aa aa aa aa aa
4.619600 1  75c             Rx   d 8 04 76 01 00 00 00 00 00
4.621100 1  74c             Tx   d 8 01 37 aa aa aa aa aa aa
4.621500 1  75c             Rx   d 8 01 77 00 00 00 00 00 00
4.623600 1  74c             Tx   d 8 10 0b 34 00 44 80 02 01
4.623900 1  75c             Rx   d 8 30 00 01 00 00 00 00 00
4.625400 1  74c             Tx   d 8 21 40 00 00 00 30 aa aa
4.625800 1  75c             Rx   d 8 03 74 10 80 00 00 00 00
4.628400 1  74c             Tx   d 8 10 32 36 01 00 00 10 f0
4.628700 1  75c             Rx   d 8 30 00 01 00 00 00 00 00
4.630500 1  74c             Tx   d 8 21 00 02 02 01 0b 00 01
4.632400 1  74c             Tx   d 8 22 00 00 00 00 03 00 00
4.633900 1  74c             Tx   d 8 23 00 00 00 00 20 41 00
4.635400 1  74c             Tx   d 8 24 00 20 41 01 00 00 00
4.636800 1  74c             Tx   d 8 25 0c ec 04 80 00 00 00
4.638300 1  74c             Tx   d 8 26 00 00 00 00 00 00 00
4.639800 1  74c             Tx   d 8 27 00 00 aa aa aa aa aa
4.640400 1  75c             Rx   d 8 04 76 01 00 00 00 00 00
4.641900 1  74c             Tx   d 8 01 37 aa aa aa aa aa aa
4.642300 1  75c             Rx   d 8 01 77 00 00 00 00 00 00
4.644200 1  74c             Tx   d 8 10 0b 34 00 44 80 02 01
4.644500 1  75c             Rx   d 8 30 00 01 00 00 00 00 00
4.646300 1  74c             Tx   d 8 21 80 00 00 00 30 aa aa
4.646700 1  75c             Rx   d 8 03 74 10 80 00 00 00 00
4.647800 1  74c             Tx   d 8 10 32 36 01 00 00 10 f0
4.648100 1  75c             Rx   d 8 30 00 01 00 00 00 00 00
4.649700 1  74c             Tx   d 8 21 00 03 02 01 0c 00 01
4.651200 1  74c             Tx   d 8 22 00 00 00 00 03 00 00
4.652700 1  74c             Tx   d 8 23 00 00 00 00 20 41 00
4.654200 1  74c             Tx   d 8 24 00 20 41 01 00 00 00
4.655700 1  74c             Tx   d 8 25 1c ec 04 80 00 00 00
4.657200 1  74c             Tx   d 8 26 00 00 00 00 00 00 00
4.658600 1  74c             Tx   d 8 27 00 00 aa aa aa aa aa
4.659200 1  75c             Rx   d 8 04 76 01 00 00 00 00 00
4.660700 1  74c             Tx   d 8 01 37 aa aa aa aa aa aa
4.661100 1  75c             Rx   d 8 01 77 00 00 00 00 00 00
4.663100 1  74c             Tx   d 8 10 0b 34 00 44 80 02 01
4.663400 1  75c             Rx   d 8 30 00 01 00 00 00 00 00
4.665100 1  74c             Tx   d 8 21 c0 00 00 00 30 aa aa
4.665500 1  75c             Rx   d 8 03 74 10 80 00 00 00 00
4.667800 1  74c             Tx   d 8 10 32 36 01 00 00 10 f0
4.668100 1  75c             Rx   d 8 30 00 01 00 00 00 00 00
4.669600 1  74c             Tx   d 8 21 00 07 00 00 00 00 00
4.671100 1  74c             Tx   d 8 22 00 00 00 07 03 00 03
4.672600 1  74c             Tx   d 8 23 03 00 00 00 00 00 00
4.674500 1  74c             Tx   d 8 24 00 00 00 00 00 00 00
4.676000 1  74c             Tx   d 8 25 2c ec 04 80 00 00 00
4.677500 1  74c             Tx   d 8 26 00 07 00 00 00 00 00
4.679000 1  74c             Tx   d 8 27 00 00 aa aa aa aa aa
4.679600 1  75c             Rx   d 8 04 76 01 00 00 00 00 00
4.681100 1  74c             Tx   d 8 01 37 aa aa aa aa aa aa
4.681500 1  75c             Rx   d 8 01 77 00 00 00 00 00 00
4.683700 1  74c             Tx   d 8 10 0b 34 00 44 80 02 02
4.684000 1  75c             Rx   d 8 30 00 01 00 00 00 00 00
4.685900 1  74c             Tx   d 8 21 00 00 00 00 30 aa aa
4.686300 1  75c             Rx   d 8 03 74 10 80 00 00 00 00
4.687900 1  74c             Tx   d 8 10 32 36 01 00 00 10 f0
4.688200 1  75c             Rx   d 8 30 00 01 00 00 00 00 00
4.689900 1  74c             Tx   d 8 21 00 00 00 00 00 00 00
4.691400 1  74c             Tx   d 8 22 00 00 00 07 03 00 03
4.692900 1  74c             Tx   d 8 23 03 00 00 00 00 00 00
4.694500 1  74c             Tx   d 8 24 00 00 00 00 00 00 00
4.696500 1  74c             Tx   d 8 25 ec eb 04 80 00 00 00
4.698400 1  74c             Tx   d 8 26 00 07 00 00 00 00 00
4.699800 1  74c             Tx   d 8 27 00 00 aa aa aa aa aa
4.700400 1  75c             Rx   d 8 04 76 01 00 00 00 00 00
4.701900 1  74c             Tx   d 8 01 37 aa aa aa aa aa aa
4.702300 1  75c             Rx   d 8 01 77 00 00 00 00 00 00
4.704200 1  74c             Tx   d 8 10 0b 34 00 44 80 02 02
4.704500 1  75c             Rx   d 8 30 00 01 00 00 00 00 00
4.706300 1  74c             Tx   d 8 21 40 00 00 00 24 aa aa
4.706600 1  75c             Rx   d 8 03 74 10 80 00 00 00 00
4.708700 1  74c             Tx   d 8 10 26 36 01 00 00 00 00
4.709000 1  75c             Rx   d 8 30 00 01 00 00 00 00 00
4.710700 1  74c             Tx   d 8 21 00 00 c8 42 01 00 80
4.712400 1  74c             Tx   d 8 22 00 01 01 00 00 00 00
4.714200 1  74c             Tx   d 8 23 00 00 01 00 00 00 c0
4.715700 1  74c             Tx   d 8 24 02 02 80 c0 02 02 80
4.717200 1  74c             Tx   d 8 25 01 00 00 00 aa aa aa
4.717800 1  75c             Rx   d 8 04 76 01 00 00 00 00 00
4.719300 1  74c             Tx   d 8 01 37 aa aa aa aa aa aa
4.719600 1  75c             Rx   d 8 01 77 00 00 00 00 00 00
4.721500 1  74c             Tx   d 8 10 0b 34 00 44 80 02 02
4.721800 1  75c             Rx   d 8 30 00 01 00 00 00 00 00
4.723600 1  74c             Tx   d 8 21 80 00 00 00 24 aa aa
4.724000 1  75c             Rx   d 8 03 74 10 80 00 00 00 00
4.726000 1  74c             Tx   d 8 10 26 36 01 00 00 00 00
4.726300 1  75c             Rx   d 8 30 00 01 00 00 00 00 00
4.728100 1  74c             Tx   d 8 21 00 00 c8 42 01 00 80
4.729600 1  74c             Tx   d 8 22 00 01 01 00 00 00 00
4.731100 1  74c             Tx   d 8 23 00 00 01 00 00 00 e0
4.732600 1  74c             Tx   d 8 24 02 02 80 e0 02 02 80
4.734100 1  74c             Tx   d 8 25 01 00 00 00 aa aa aa
4.734600 1  75c             Rx   d 8 04 76 01 00 00 00 00 00
4.736100 1  74c             Tx   d 8 01 37 aa aa aa aa aa aa
4.736500 1  75c             Rx   d 8 01 77 00 00 00 00 00 00
4.738500 1  74c             Tx   d 8 10 0b 34 00 44 80 02 02
4.738800 1  75c             Rx   d 8 30 00 01 00 00 00 00 00
4.740500 1  74c             Tx   d 8 21 c0 00 00 00 04 aa aa
4.740800 1  75c             Rx   d 8 03 74 10 80 00 00 00 00
4.742700 1  74c             Tx   d 8 06 36 01 dc ec 04 80 aa
4.743200 1  75c             Rx   d 8 04 76 01 dc ec 00 00 00
4.744600 1  74c             Tx   d 8 01 37 aa aa aa aa aa aa
4.745000 1  75c             Rx   d 8 01 77 00 00 00 00 00 00
4.746800 1  74c             Tx   d 8 10 0b 34 00 44 80 02 02
4.747100 1  75c             Rx   d 8 30 00 01 00 00 00 00 00
4.748900 1  74c             Tx   d 8 21 e0 00 00 00 04 aa aa
4.749300 1  75c             Rx   d 8 03 74 10 80 00 00 00 00
4.750800 1  74c             Tx   d 8 06 36 01 50 ec 04 80 aa
4.751200 1  75c             Rx   d 8 04 76 01 50 ec 00 00 00
4.752700 1  74c             Tx   d 8 01 37 aa aa aa aa aa aa
4.753100 1  75c             Rx   d 8 01 77 00 00 00 00 00 00
4.754600 1  74c             Tx   d 8 10 0b 34 00 44 80 02 03
4.754900 1  75c             Rx   d 8 30 00 01 00 00 00 00 00
4.756700 1  74c             Tx   d 8 21 00 00 00 00 24 aa aa
4.757100 1  75c             Rx   d 8 03 74 10 80 00 00 00 00
4.759400 1  74c             Tx   d 8 10 26 36 01 00 00 00 00
4.759700 1  75c             Rx   d 8 30 00 01 00 00 00 00 00
4.761700 1  74c             Tx   d 8 21 00 00 c8 42 03 00 80
4.763200 1  74c             Tx   d 8 22 00 01 01 00 00 00 00
4.765100 1  74c             Tx   d 8 23 00 00 01 00 00 00 80
4.766600 1  74c             Tx   d 8 24 03 02 80 a0 03 02 80
4.768100 1  74c             Tx   d 8 25 01 00 00 00 aa aa aa
4.768600 1  75c             Rx   d 8 04 76 01 00 00 00 00 00
4.770200 1  74c             Tx   d 8 01 37 aa aa aa aa aa aa
4.770500 1  75c             Rx   d 8 01 77 00 00 00 00 00 00
4.772400 1  74c             Tx   d 8 10 0b 34 00 44 80 02 03
4.772800 1  75c             Rx   d 8 30 00 01 00 00 00 00 00
4.774500 1  74c             Tx   d 8 21 40 00 00 00 34 aa aa
4.774900 1  75c             Rx   d 8 03 74 10 80 00 00 00 00
4.777200 1  74c             Tx   d 8 10 36 36 01 00 40 9c 45
4.777500 1  75c             Rx   d 8 30 00 01 00 00 00 00 00
4.779000 1  74c             Tx   d 8 21 00 00 00 00 00 00 48
4.780500 1  74c             Tx   d 8 22 42 01 00 c4 09 00 00
4.782000 1  74c             Tx   d 8 23 c7 00 00 80 00 01 01
4.783400 1  74c             Tx   d 8 24 00 00 00 00 00 00 00
4.784900 1  74c             Tx   d 8 25 00 00 00 00 00 00 10
4.786400 1  74c             Tx   d 8 26 f0 01 00 00 00 3c ec
4.787900 1  74c             Tx   d 8 27 04 80 00 00 00 01 aa
4.788500 1  75c             Rx   d 8 04 76 01 00 40 00 00 00
4.790000 1  74c             Tx   d 8 01 37 aa aa aa aa aa aa
4.790300 1  75c             Rx   d 8 01 77 00 00 00 00 00 00
4.792300 1  74c             Tx   d 8 10 0b 34 00 44 80 02 03
4.792600 1  75c             Rx   d 8 30 00 01 00 00 00 00 00
4.794400 1  74c             Tx   d 8 21 80 00 00 00 0c aa aa
4.794700 1  75c             Rx   d 8 03 74 10 80 00 00 00 00
4.796900 1  74c             Tx   d 8 10 0e 36 01 64 ec 04 80
4.797200 1  75c             Rx   d 8 30 00 01 00 00 00 00 00
4.798800 1  74c             Tx   d 8 21 8c ec 04 80 b4 ec 04
4.800300 1  74c             Tx   d 8 22 80 aa aa aa aa aa aa
4.800700 1  75c             Rx   d 8 04 76 01 64 ec 00 00 00
4.802400 1  74c             Tx   d 8 01 37 aa aa aa aa aa aa
4.802800 1  75c             Rx   d 8 01 77 00 00 00 00 00 00
4.804800 1  74c             Tx   d 8 10 0b 34 00 44 80 02 03
4.805100 1  75c             Rx   d 8 30 00 01 00 00 00 00 00
4.806800 1  74c             Tx   d 8 21 a0 00 00 00 0c aa aa
4.807100 1  75c             Rx   d 8 03 74 10 80 00 00 00 00
4.809400 1  74c             Tx   d 8 10 0e 36 01 78 ec 04 80
4.809700 1  75c             Rx   d 8 30 00 01 00 00 00 00 00
4.811400 1  74c             Tx   d 8 21 a0 ec 04 80 c8 ec 04
4.813400 1  74c             Tx   d 8 22 80 aa aa aa aa aa aa
4.813800 1  75c             Rx   d 8 04 76 01 78 ec 00 00 00
4.814700 1  74c             Tx   d 8 01 37 aa aa aa aa aa aa
4.815000 1  75c             Rx   d 8 01 77 00 00 00 00 00 00
4.817000 1  74c             Tx   d 8 10 0b 34 00 44 80 02 03
4.817300 1  75c             Rx   d 8 30 00 01 00 00 00 00 00
4.819000 1  74c             Tx   d 8 21 c0 00 00 00 02 aa aa
4.819400 1  75c             Rx   d 8 03 74 10 80 00 00 00 00
4.821300 1  74c             Tx   d 8 04 36 01 02 00 aa aa aa
4.821700 1  75c             Rx   d 8 04 76 01 02 00 00 00 00
4.823000 1  74c             Tx   d 8 01 37 aa aa aa aa aa aa
4.823400 1  75c             Rx   d 8 01 77 00 00 00 00 00 00
4.824800 1  74c             Tx   d 8 10 0b 34 00 44 80 02 03
4.825100 1  75c             Rx   d 8 30 00 01 00 00 00 00 00
4.826900 1  74c             Tx   d 8 21 e0 00 00 00 02 aa aa
4.827300 1  75c             Rx   d 8 03 74 10 80 00 00 00 00
4.829300 1  74c             Tx   d 8 04 36 01 0a 00 aa aa aa
4.829800 1  75c             Rx   d 8 04 76 01 0a 00 00 00 00
4.831000 1  74c             Tx   d 8 01 37 aa aa aa aa aa aa
4.831300 1  75c             Rx   d 8 01 77 00 00 00 00 00 00
4.832800 1  74c             Tx   d 8 10 0b 34 00 44 80 02 04
4.833100 1  75c             Rx   d 8 30 00 01 00 00 00 00 00
4.834800 1  74c             Tx   d 8 21 00 00 00 00 02 aa aa
4.835200 1  75c             Rx   d 8 03 74 10 80 00 00 00 00
4.837000 1  74c             Tx   d 8 04 36 01 08 00 aa aa aa
4.837500 1  75c             Rx   d 8 04 76 01 08 00 00 00 00
4.838900 1  74c             Tx   d 8 01 37 aa aa aa aa aa aa
4.839300 1  75c             Rx   d 8 01 77 00 00 00 00 00 00
4.840700 1  74c             Tx   d 8 10 0b 34 00 44 80 02 04
4.841000 1  75c             Rx   d 8 30 00 01 00 00 00 00 00
4.842800 1  74c             Tx   d 8 21 20 00 00 00 02 aa aa
4.843100 1  75c             Rx   d 8 03 74 10 80 00 00 00 00
4.845000 1  74c             Tx   d 8 04 36 01 04 00 aa aa aa
4.845400 1  75c             Rx   d 8 04 76 01 04 00 00 00 00
4.846800 1  74c             Tx   d 8 01 37 aa aa aa aa aa aa
4.847200 1  75c             Rx   d 8 01 77 00 00 00 00 00 00
4.848700 1  74c             Tx   d 8 10 0b 34 00 44 80 02 04
4.849000 1  75c             Rx   d 8 30 00 01 00 00 00 00 00
4.850700 1  74c             Tx   d 8 21 40 00 00 00 0c aa aa
4.851100 1  75c             Rx   d 8 03 74 10 80 00 00 00 00
4.853100 1  74c             Tx   d 8 10 0e 36 01 00 00 00 00
4.853400 1  75c             Rx   d 8 30 00 01 00 00 00 00 00
4.855200 1  74c             Tx   d 8 21 00 00 00 00 00 00 00
4.856600 1  74c             Tx   d 8 22 00 aa aa aa aa aa aa
4.857100 1  75c             Rx   d 8 04 76 01 00 00 00 00 00
4.858800 1  74c             Tx   d 8 01 37 aa aa aa aa aa aa
4.859200 1  75c             Rx   d 8 01 77 00 00 00 00 00 00
4.861100 1  74c             Tx   d 8 10 0b 34 00 44 80 02 04
4.861400 1  75c             Rx   d 8 30 00 01 00 00 00 00 00
4.863200 1  74c             Tx   d 8 21 60 00 00 00 28 aa aa
4.863500 1  75c             Rx   d 8 03 74 10 80 00 00 00 00
4.864900 1  74c             Tx   d 8 10 2a 36 01 00 00 00 00
4.865200 1  75c             Rx   d 8 30 00 01 00 00 00 00 00
4.867100 1  74c             Tx   d 8 21 00 00 f0 42 00 00 2a
4.868600 1  74c             Tx   d 8 22 43 00 00 5c 43 00 00
4.870100 1  74c             Tx   d 8 23 87 43 00 00 a0 43 00
4.871500 1  74c             Tx   d 8 24 00 b9 43 00 00 c8 43
4.873100 1  74c             Tx   d 8 25 00 00 c8 43 00 00 c8
4.874700 1  74c             Tx   d 8 26 43 aa aa aa aa aa aa
4.875300 1  75c             Rx   d 8 04 76 01 00 00 00 00 00
4.877100 1  74c             Tx   d 8 01 37 aa aa aa aa aa aa
4.877500 1  75c             Rx   d 8 01 77 00 00 00 00 00 00
4.879500 1  74c             Tx   d 8 10 0b 34 00 44 80 02 04
4.879800 1  75c             Rx   d 8 30 00 01 00 00 00 00 00
4.881800 1  74c             Tx   d 8 21 a0 00 00 00 01 aa aa
4.882200 1  75c             Rx   d 8 03 74 10 80 00 00 00 00
4.883000 1  74c             Tx   d 8 03 36 01 00 aa aa aa aa
4.883500 1  75c             Rx   d 8 04 76 01 00 00 00 00 00
4.884800 1  74c             Tx   d 8 01 37 aa aa aa aa aa aa
4.885100 1  75c             Rx   d 8 01 77 00 00 00 00 00 00
4.886600 1  74c             Tx   d 8 10 0b 34 00 44 80 02 08
4.886900 1  75c             Rx   d 8 30 00 01 00 00 00 00 00
4.888700 1  74c             Tx   d 8 21 00 00 00 07 fc aa aa
4.889000 1  75c             Rx   d 8 03 74 10 80 00 00 00 00
4.891300 1  74c             Tx   d 8 10 80 36 01 00 80 00 00
4.891600 1  75c             Rx   d 8 30 00 01 00 00 00 00 00
4.893100 1  74c             Tx   d 8 21 00 00 00 00 00 80 00
4.894600 1  74c             Tx   d 8 22 00 00 00 00 00 00 80
4.896200 1  74c             Tx   d 8 23 00 00 00 00 00 00 00
4.898100 1  74c             Tx   d 8 24 80 00 00 00 00 00 00
4.899600 1  74c             Tx   d 8 25 00 80 00 00 00 00 00
4.901100 1  74c             Tx   d 8 26 00 00 80 00 00 00 00
4.902600 1  74c             Tx   d 8 27 00 00 00 80 00 00 00
4.904100 1  74c             Tx   d 8 28 00 00 00 00 80 00 00
4.905500 1  74c             Tx   d 8 29 00 00 00 00 00 80 00
4.907000 1  74c             Tx   d 8 2a 00 00 00 00 00 00 80
4.908500 1  74c             Tx   d 8 2b 00 00 00 00 00 00 00
4.910000 1  74c             Tx   d 8 2c 80 00 00 00 00 00 00
4.911500 1  74c             Tx   d 8 2d 00 80 00 00 00 00 00
4.913000 1  74c             Tx   d 8 2e 00 00 80 00 00 00 00
4.914500 1  74c             Tx   d 8 2f 00 00 00 80 00 00 00
4.916000 1  74c             Tx   d 8 20 00 00 00 00 80 00 00
4.917400 1  74c             Tx   d 8 21 00 00 00 00 00 80 00
4.918900 1  74c             Tx   d 8 22 00 00 00 aa aa aa aa
4.919700 1  75c             Rx   d 8 04 76 01 00 80 00 00 00
4.921300 1  74c             Tx   d 8 10 80 36 02 00 00 00 80
4.921700 1  75c             Rx   d 8 30 00 01 00 00 00 00 00
4.923400 1  74c             Tx   d 8 21 00 00 00 00 00 00 00
4.925100 1  74c             Tx   d 8 22 80 00 00 00 00 00 00
4.927100 1  74c             Tx   d 8 23 00 80 00 00 00 00 00
4.929000 1  74c             Tx   d 8 24 00 00 80 00 00 00 00
4.930500 1  74c             Tx   d 8 25 00 00 00 80 00 00 00
4.932100 1  74c             Tx   d 8 26 00 00 00 00 80 00 00
4.933800 1  74c             Tx   d 8 27 00 00 00 00 00 80 00
4.935400 1  74c             Tx   d 8 28 00 00 00 00 00 00 80
4.937000 1  74c             Tx   d 8 29 00 00 00 00 00 00 00
4.938700 1  74c             Tx   d 8 2a 80 00 00 00 00 00 00
4.940400 1  74c             Tx   d 8 2b 00 80 00 00 00 00 00
4.942700 1  74c             Tx   d 8 2c 00 00 80 00 00 00 00
4.944500 1  74c             Tx   d 8 2d 00 00 00 80 00 00 00
4.946000 1  74c             Tx   d 8 2e 00 00 00 00 80 00 00
4.947900 1  74c             Tx   d 8 2f 00 00 00 00 00 80 00
4.949400 1  74c             Tx   d 8 20 00 00 00 00 00 00 80
4.950900 1  74c             Tx   d 8 21 00 00 00 00 00 00 00
4.952400 1  74c             Tx   d 8 22 80 00 00 aa aa aa aa
4.953200 1  75c             Rx   d 8 04 76 02 00 00 00 00 00
4.954800 1  74c             Tx   d 8 10 80 36 03 00 00 00 00
4.955100 1  75c             Rx   d 8 30 00 01 00 00 00 00 00
4.956900 1  74c             Tx   d 8 21 00 80 00 00 00 00 00
4.958400 1  74c             Tx   d 8 22 00 00 80 00 00 00 00
4.959900 1  74c             Tx   d 8 23 00 00 00 80 00 00 00
4.961300 1  74c             Tx   d 8 24 00 00 00 00 80 00 00
4.962900 1  74c             Tx   d 8 25 00 00 00 00 00 80 00
4.964800 1  74c             Tx   d 8 26 00 00 00 00 00 00 80
4.966300 1  74c             Tx   d 8 27 00 00 00 00 00 00 00
4.967800 1  74c             Tx   d 8 28 80 00 00 00 00 00 00
4.969200 1  74c             Tx   d 8 29 00 80 00 00 00 00 00
4.970700 1  74c             Tx   d 8 2a 00 00 80 00 00 00 00
4.972200 1  74c             Tx   d 8 2b 00 00 00 80 00 00 00
4.973700 1  74c             Tx   d 8 2c 00 00 00 00 80 00 00
4.975200 1  74c             Tx   d 8 2d 00 00 00 00 00 80 00
4.976700 1  74c             Tx   d 8 2e 00 00 00 00 00 00 80
4.978200 1  74c             Tx   d 8 2f 00 00 00 00 00 00 00
4.979700 1  74c             Tx   d 8 20 80 00 00 00 00 00 00
4.981200 1  74c             Tx   d 8 21 00 80 00 00 00 00 00
4.982600 1  74c             Tx   d 8 22 00 00 80 aa aa aa aa
4.983400 1  75c             Rx   d 8 04 76 03 00 00 00 00 00
4.985000 1  74c             Tx   d 8 10 80 36 04 00 00 00 00
4.985300 1  75c             Rx   d 8 30 00 01 00 00 00 00 00
4.987100 1  74c             Tx   d 8 21 00 00 00 80 00 00 00
4.988600 1  74c             Tx   d 8 22 00 00 00 00 80 00 00
4.990100 1  74c             Tx   d 8 23 00 00 00 00 00 80 00
4.991600 1  74c             Tx   d 8 24 00 00 00 00 00 00 80
4.993100 1  74c             Tx   d 8 25 00 00 00 00 00 00 00
4.994600 1  74c             Tx   d 8 26 80 00 00 00 00 00 00
4.996500 1  74c             Tx   d 8 27 00 80 00 00 00 00 00
4.998100 1  74c             Tx   d 8 28 00 00 80 00 00 00 00
5.000100 1  74c             Tx   d 8 29 00 00 00 80 00 00 00
5.001700 1  74c             Tx   d 8 2a 00 00 00 00 80 00 00
5.003700 1  74c             Tx   d 8 2b 00 00 00 00 00 80 00
5.005600 1  74c             Tx   d 8 2c 00 00 00 00 00 00 80
5.007200 1  74c             Tx   d 8 2d 00 00 00 00 00 00 00
5.008700 1  74c             Tx   d 8 2e 80 00 00 00 00 00 00
5.010200 1  74c             Tx   d 8 2f 00 80 00 00 00 00 00
5.011700 1  74c             Tx   d 8 20 00 00 80 00 00 00 00
5.013300 1  74c             Tx   d 8 21 00 00 00 80 00 00 00
5.014700 1  74c             Tx   d 8 22 00 00 00 aa aa aa aa
5.015500 1  75c             Rx   d 8 04 76 04 00 00 00 00 00
5.017000 1  74c             Tx   d 8 10 80 36 05 00 80 00 00
5.017400 1  75c             Rx   d 8 30 00 01 00 00 00 00 00
5.019100 1  74c             Tx   d 8 21 00 00 00 00 00 80 00
5.020600 1  74c             Tx   d 8 22 00 00 00 00 00 00 80
5.022100 1  74c             Tx   d 8 23 00 00 00 00 00 00 00
5.023600 1  74c             Tx   d 8 24 80 00 00 00 00 00 00
5.025100 1  74c             Tx   d 8 25 00 80 00 00 00 00 00
5.026600 1  74c             Tx   d 8 26 00 00 80 00 00 00 00
5.028100 1  74c             Tx   d 8 27 00 00 00 80 00 00 00
5.029600 1  74c             Tx   d 8 28 00 00 00 00 80 00 00
5.031000 1  74c             Tx   d 8 29 00 00 00 00 00 80 00
5.032500 1  74c             Tx   d 8 2a 00 00 00 00 00 00 80
5.034000 1  74c             Tx   d 8 2b 00 00 00 00 00 00 00
5.035500 1  74c             Tx   d 8 2c 80 00 00 00 00 00 00
5.037000 1  74c             Tx   d 8 2d 00 80 00 00 00 00 00
5.038500 1  74c             Tx   d 8 2e 00 00 80 00 00 00 00
5.040000 1  74c             Tx   d 8 2f 00 00 00 80 00 00 00
5.041500 1  74c             Tx   d 8 20 00 00 00 00 80 00 00
5.042900 1  74c             Tx   d 8 21 00 00 00 00 00 80 00
5.044400 1  74c             Tx   d 8 22 00 00 00 aa aa aa aa
5.045200 1  75c             Rx   d 8 04 76 05 00 80 00 00 00
5.046900 1  74c             Tx   d 8 10 80 36 06 00 00 00 80
5.047200 1  75c             Rx   d 8 30 00 01 00 00 00 00 00
5.048900 1  74c             Tx   d 8 21 00 00 00 00 00 00 00
5.050500 1  74c             Tx   d 8 22 80 00 00 00 00 00 00
5.052500 1  74c             Tx   d 8 23 00 80 00 00 00 00 00
5.054100 1  74c             Tx   d 8 24 00 00 80 00 00 00 00
5.056100 1  74c             Tx   d 8 25 00 00 00 80 00 00 00
5.058000 1  74c             Tx   d 8 26 00 00 00 00 80 00 00
5.060000 1  74c             Tx   d 8 27 00 00 00 00 00 80 00
5.061900 1  74c             Tx   d 8 28 00 00 00 00 00 00 80
5.063900 1  74c             Tx   d 8 29 00 00 00 00 00 00 00
5.066000 1  74c             Tx   d 8 2a 80 00 00 00 00 00 00
5.067800 1  74c             Tx   d 8 2b 00 80 00 00 00 00 00
5.069300 1  74c             Tx   d 8 2c 00 00 80 00 00 00 00
5.070800 1  74c             Tx   d 8 2d 00 00 00 80 00 00 00
5.072200 1  74c             Tx   d 8 2e 00 00 00 00 80 00 00
5.073700 1  74c             Tx   d 8 2f 00 00 00 00 00 80 00
5.075200 1  74c             Tx   d 8 20 00 00 00 00 00 00 80
5.076700 1  74c             Tx   d 8 21 00 00 00 00 00 00 00
5.078200 1  74c             Tx   d 8 22 80 00 00 aa aa aa aa
5.079000 1  75c             Rx   d 8 04 76 06 00 00 00 00 00
5.081300 1  74c             Tx   d 8 10 80 36 07 00 00 00 00
5.081600 1  75c             Rx   d 8 30 00 01 00 00 00 00 00
5.083200 1  74c             Tx   d 8 21 00 80 00 00 00 00 00
5.084600 1  74c             Tx   d 8 22 00 00 80 00 00 00 00
5.086100 1  74c             Tx   d 8 23 00 00 00 80 00 00 00
5.087700 1  74c             Tx   d 8 24 00 00 00 00 80 00 00
5.089600 1  74c             Tx   d 8 25 00 00 00 00 00 80 00
5.091100 1  74c             Tx   d 8 26 00 00 00 00 00 00 80
5.092600 1  74c             Tx   d 8 27 00 00 00 00 00 00 00
5.094100 1  74c             Tx   d 8 28 80 00 00 00 00 00 00
5.095600 1  74c             Tx   d 8 29 00 80 00 00 00 00 00
5.097100 1  74c             Tx   d 8 2a 00 00 80 00 00 00 00
5.098600 1  74c             Tx   d 8 2b 00 00 00 80 00 00 00
5.100000 1  74c             Tx   d 8 2c 00 00 00 00 80 00 00
5.101500 1  74c             Tx   d 8 2d 00 00 00 00 00 80 00
5.103000 1  74c             Tx   d 8 2e 00 00 00 00 00 00 80
5.104500 1  74c             Tx   d 8 2f 00 00 00 00 00 00 00
5.106000 1  74c             Tx   d 8 20 80 00 00 00 00 00 00
5.107500 1  74c             Tx   d 8 21 00 80 00 00 00 00 00
5.108900 1  74c             Tx   d 8 22 00 00 80 aa aa aa aa
5.109800 1  75c             Rx   d 8 04 76 07 00 00 00 00 00
5.111600 1  74c             Tx   d 8 10 80 36 08 00 00 00 00
5.112000 1  75c             Rx   d 8 30 00 01 00 00 00 00 00
5.113500 1  74c             Tx   d 8 21 00 00 00 80 00 00 00
5.115400 1  74c             Tx   d 8 22 00 00 00 00 80 00 00
5.116900 1  74c             Tx   d 8 23 00 00 00 00 00 80 00
5.118400 1  74c             Tx   d 8 24 00 00 00 00 00 00 80
5.119900 1  74c             Tx   d 8 25 00 00 00 00 00 00 00
5.121400 1  74c             Tx   d 8 26 80 00 00 00 00 00 00
5.122900 1  74c             Tx   d 8 27 00 80 00 00 00 00 00
5.124600 1  74c             Tx   d 8 28 00 00 80 00 00 00 00
5.126100 1  74c             Tx   d 8 29 00 00 00 80 00 00 00
5.127700 1  74c             Tx   d 8 2a 00 00 00 00 80 00 00
5.129200 1  74c             Tx   d 8 2b 00 00 00 00 00 80 00
5.131200 1  74c             Tx   d 8 2c 00 00 00 00 00 00 80
5.133100 1  74c             Tx   d 8 2d 00 00 00 00 00 00 00
5.134600 1  74c             Tx   d 8 2e 80 00 00 00 00 00 00
5.136100 1  74c             Tx   d 8 2f 00 80 00 00 00 00 00
5.137600 1  74c             Tx   d 8 20 00 00 80 00 00 00 00
5.139000 1  74c             Tx   d 8 21 00 00 00 80 00 00 00
5.140500 1  74c             Tx   d 8 22 00 00 00 aa aa aa aa
5.141300 1  75c             Rx   d 8 04 76 08 00 00 00 00 00
5.143200 1  74c             Tx   d 8 10 80 36 09 00 80 00 00
5.143500 1  75c             Rx   d 8 30 00 01 00 00 00 00 00
5.145000 1  74c             Tx   d 8 21 00 00 00 00 00 80 00
5.146500 1  74c             Tx   d 8 22 00 00 00 00 00 00 80
5.148000 1  74c             Tx   d 8 23 00 00 00 00 00 00 00
5.149500 1  74c             Tx   d 8 24 80 00 00 00 00 00 00
5.151000 1  74c             Tx   d 8 25 00 80 00 00 00 00 00
5.152400 1  74c             Tx   d 8 26 00 00 80 00 00 00 00
5.153900 1  74c             Tx   d 8 27 00 00 00 80 00 00 00
5.155400 1  74c             Tx   d 8 28 00 00 00 00 80 00 00
5.156900 1  74c             Tx   d 8 29 00 00 00 00 00 80 00
5.158400 1  74c             Tx   d 8 2a 00 00 00 00 00 00 80
5.159900 1  74c             Tx   d 8 2b 00 00 00 00 00 00 00
5.161400 1  74c             Tx   d 8 2c 80 00 00 00 00 00 00
5.162900 1  74c             Tx   d 8 2d 00 80 00 00 00 00 00
5.164400 1  74c             Tx   d 8 2e 00 00 80 00 00 00 00
5.165800 1  74c             Tx   d 8 2f 00 00 00 80 00 00 00
5.167300 1  74c             Tx   d 8 20 00 00 00 00 80 00 00
5.168800 1  74c             Tx   d 8 21 00 00 00 00 00 80 00
5.170300 1  74c             Tx   d 8 22 00 00 00 aa aa aa aa
5.171100 1  75c             Rx   d 8 04 76 09 00 80 00 00 00
5.172900 1  74c             Tx   d 8 10 80 36 0a 00 00 00 80
5.173200 1  75c             Rx   d 8 30 00 01 00 00 00 00 00
5.174800 1  74c             Tx   d 8 21 00 00 00 00 00 00 00
5.176200 1  74c             Tx   d 8 22 80 00 00 00 00 00 00
5.177800 1  74c             Tx   d 8 23 00 80 00 00 00 00 00
5.179400 1  74c             Tx   d 8 24 00 00 80 00 00 00 00
5.181200 1  74c             Tx   d 8 25 00 00 00 80 00 00 00
5.182800 1  74c             Tx   d 8 26 00 00 00 00 80 00 00
5.184200 1  74c             Tx   d 8 27 00 00 00 00 00 80 00
5.185900 1  74c             Tx   d 8 28 00 00 00 00 00 00 80
5.187900 1  74c             Tx   d 8 29 00 00 00 00 00 00 00
5.189700 1  74c             Tx   d 8 2a 80 00 00 00 00 00 00
5.191200 1  74c             Tx   d 8 2b 00 80 00 00 00 00 00
5.192700 1  74c             Tx   d 8 2c 00 00 80 00 00 00 00
5.194200 1  74c             Tx   d 8 2d 00 00 00 80 00 00 00
5.195700 1  74c             Tx   d 8 2e 00 00 00 00 80 00 00
5.197200 1  74c             Tx   d 8 2f 00 00 00 00 00 80 00
5.198900 1  74c             Tx   d 8 20 00 00 00 00 00 00 80
5.200600 1  74c             Tx   d 8 21 00 00 00 00 00 00 00
5.202600 1  74c             Tx   d 8 22 80 00 00 aa aa aa aa
5.203400 1  75c             Rx   d 8 04 76 0a 00 00 00 00 00
5.205100 1  74c             Tx   d 8 10 80 36 0b 00 00 00 00
5.205400 1  75c             Rx   d 8 30 00 01 00 00 00 00 00
5.207000 1  74c             Tx   d 8 21 00 80 00 00 00 00 00
5.208500 1  74c             Tx   d 8 22 00 00 80 00 00 00 00
5.210000 1  74c             Tx   d 8 23 00 00 00 80 00 00 00
5.211500 1  74c             Tx   d 8 24 00 00 00 00 80 00 00
5.213000 1  74c             Tx   d 8 25 00 00 00 00 00 80 00
5.214500 1  74c             Tx   d 8 26 00 00 00 00 00 00 80
5.216000 1  74c             Tx   d 8 27 00 00 00 00 00 00 00
5.217400 1  74c             Tx   d 8 28 80 00 00 00 00 00 00
5.218900 1  74c             Tx   d 8 29 00 80 00 00 00 00 00
5.220500 1  74c             Tx   d 8 2a 00 00 80 00 00 00 00
5.221900 1  74c             Tx   d 8 2b 00 00 00 80 00 00 00
5.223400 1  74c             Tx   d 8 2c 00 00 00 00 80 00 00
5.224900 1  74c             Tx   d 8 2d 00 00 00 00 00 80 00
5.226400 1  74c             Tx   d 8 2e 00 00 00 00 00 00 80
5.227900 1  74c             Tx   d 8 2f 00 00 00 00 00 00 00
5.229400 1  74c             Tx   d 8 20 80 00 00 00 00 00 00
5.230900 1  74c             Tx   d 8 21 00 80 00 00 00 00 00
5.232300 1  74c             Tx   d 8 22 00 00 80 aa aa aa aa
5.233100 1  75c             Rx   d 8 04 76 0b 00 00 00 00 00
5.234700 1  74c             Tx   d 8 10 80 36 0c 00 00 00 00
5.235000 1  75c             Rx   d 8 30 00 01 00 00 00 00 00
5.236800 1  74c             Tx   d 8 21 00 00 00 80 00 00 00
5.238300 1  74c             Tx   d 8 22 00 00 00 00 80 00 00
5.239800 1  74c             Tx   d 8 23 00 00 00 00 00 80 00
5.241300 1  74c             Tx   d 8 24 00 00 00 00 00 00 80
5.242700 1  74c             Tx   d 8 25 00 00 00 00 00 00 00
5.244200 1  74c             Tx   d 8 26 80 00 00 00 00 00 00
5.245800 1  74c             Tx   d 8 27 00 80 00 00 00 00 00
5.247200 1  74c             Tx   d 8 28 00 00 80 00 00 00 00
5.248700 1  74c             Tx   d 8 29 00 00 00 80 00 00 00
5.250200 1  74c             Tx   d 8 2a 00 00 00 00 80 00 00
5.251700 1  74c             Tx   d 8 2b 00 00 00 00 00 80 00
5.253200 1  74c             Tx   d 8 2c 00 00 00 00 00 00 80
5.254800 1  74c             Tx   d 8 2d 00 00 00 00 00 00 00
5.256800 1  74c             Tx   d 8 2e 80 00 00 00 00 00 00
5.258700 1  74c             Tx   d 8 2f 00 80 00 00 00 00 00
5.260200 1  74c             Tx   d 8 20 00 00 80 00 00 00 00
5.262000 1  74c             Tx   d 8 21 00 00 00 80 00 00 00
5.264100 1  74c             Tx   d 8 22 00 00 00 aa aa aa aa
5.264900 1  75c             Rx   d 8 04 76 0c 00 00 00 00 00
5.267700 1  74c             Tx   d 8 10 80 36 0d 00 80 00 00
5.268000 1  75c             Rx   d 8 30 00 01 00 00 00 00 00
5.269600 1  74c             Tx   d 8 21 00 00 00 00 00 80 00
5.271000 1  74c             Tx   d 8 22 00 00 00 00 00 00 80
5.272500 1  74c             Tx   d 8 23 00 00 00 00 00 00 00
5.274000 1  74c             Tx   d 8 24 80 00 00 00 00 00 00
5.275500 1  74c             Tx   d 8 25 00 80 00 00 00 00 00
5.277000 1  74c             Tx   d 8 26 00 00 80 00 00 00 00
5.278500 1  74c             Tx   d 8 27 00 00 00 80 00 00 00
5.280000 1  74c             Tx   d 8 28 00 00 00 00 80 00 00
5.281500 1  74c             Tx   d 8 29 00 00 00 00 00 80 00
5.283000 1  74c             Tx   d 8 2a 00 00 00 00 00 00 80
5.284400 1  74c             Tx   d 8 2b 00 00 00 00 00 00 00
5.286000 1  74c             Tx   d 8 2c 80 00 00 00 00 00 00
5.287800 1  74c             Tx   d 8 2d 00 80 00 00 00 00 00
5.289700 1  74c             Tx   d 8 2e 00 00 80 00 00 00 00
5.291200 1  74c             Tx   d 8 2f 00 00 00 80 00 00 00
5.293200 1  74c             Tx   d 8 20 00 00 00 00 80 00 00
5.295200 1  74c             Tx   d 8 21 00 00 00 00 00 80 00
5.297200 1  74c             Tx   d 8 22 00 00 00 aa aa aa aa
5.298000 1  75c             Rx   d 8 04 76 0d 00 80 00 00 00
5.299500 1  74c             Tx   d 8 10 80 36 0e 00 00 00 80
5.299900 1  75c             Rx   d 8 30 00 01 00 00 00 00 00
5.301600 1  74c             Tx   d 8 21 00 00 00 00 00 00 00
5.303100 1  74c             Tx   d 8 22 80 00 00 00 00 00 00
5.304600 1  74c             Tx   d 8 23 00 80 00 00 00 00 00
5.306100 1  74c             Tx   d 8 24 00 00 80 00 00 00 00
5.307600 1  74c             Tx   d 8 25 00 00 00 80 00 00 00
5.309100 1  74c             Tx   d 8 26 00 00 00 00 80 00 00
5.310600 1  74c             Tx   d 8 27 00 00 00 00 00 80 00
5.312100 1  74c             Tx   d 8 28 00 00 00 00 00 00 80
5.313500 1  74c             Tx   d 8 29 00 00 00 00 00 00 00
5.315000 1  74c             Tx   d 8 2a 80 00 00 00 00 00 00
5.316600 1  74c             Tx   d 8 2b 00 80 00 00 00 00 00
5.318600 1  74c             Tx   d 8 2c 00 00 80 00 00 00 00
5.320200 1  74c             Tx   d 8 2d 00 00 00 80 00 00 00
5.322100 1  74c             Tx   d 8 2e 00 00 00 00 80 00 00
5.324000 1  74c             Tx   d 8 2f 00 00 00 00 00 80 00
5.326200 1  74c             Tx   d 8 20 00 00 00 00 00 00 80
5.328000 1  74c             Tx   d 8 21 00 00 00 00 00 00 00
5.329500 1  74c             Tx   d 8 22 80 00 00 aa aa aa aa
5.330300 1  75c             Rx   d 8 04 76 0e 00 00 00 00 00
5.332500 1  74c             Tx   d 8 10 80 36 0f 00 00 00 00
5.332900 1  75c             Rx   d 8 30 00 01 00 00 00 00 00
5.334400 1  74c             Tx   d 8 21 00 80 00 00 00 00 00
5.335900 1  74c             Tx   d 8 22 00 00 80 00 00 00 00
5.337400 1  74c             Tx   d 8 23 00 00 00 80 00 00 00
5.338900 1  74c             Tx   d 8 24 00 00 00 00 80 00 00
5.340400 1  74c             Tx   d 8 25 00 00 00 00 00 80 00
5.341900 1  74c             Tx   d 8 26 00 00 00 00 00 00 80
5.343400 1  74c             Tx   d 8 27 00 00 00 00 00 00 00
5.344900 1  74c             Tx   d 8 28 80 00 00 00 00 00 00
5.346400 1  74c             Tx   d 8 29 00 80 00 00 00 00 00
5.347800 1  74c             Tx   d 8 2a 00 00 80 00 00 00 00
5.349300 1  74c             Tx   d 8 2b 00 00 00 80 00 00 00
5.350800 1  74c             Tx   d 8 2c 00 00 00 00 80 00 00
5.352300 1  74c             Tx   d 8 2d 00 00 00 00 00 80 00
5.353800 1  74c             Tx   d 8 2e 00 00 00 00 00 00 80
5.355300 1  74c             Tx   d 8 2f 00 00 00 00 00 00 00
5.356800 1  74c             Tx   d 8 20 80 00 00 00 00 00 00
5.358300 1  74c             Tx   d 8 21 00 80 00 00 00 00 00
5.359700 1  74c             Tx   d 8 22 00 00 80 aa aa aa aa
5.360600 1  75c             Rx   d 8 04 76 0f 00 00 00 00 00
5.362300 1  74c             Tx   d 8 10 80 36 10 00 00 00 00
5.362600 1  75c             Rx   d 8 30 00 01 00 00 00 00 00
5.364200 1  74c             Tx   d 8 21 00 00 00 80 00 00 00
5.365700 1  74c             Tx   d 8 22 00 00 00 00 80 00 00
5.367200 1  74c             Tx   d 8 23 00 00 00 00 00 80 00
5.368700 1  74c             Tx   d 8 24 00 00 00 00 00 00 80
5.370200 1  74c             Tx   d 8 25 00 00 00 00 00 00 00
5.371700 1  74c             Tx   d 8 26 80 00 00 00 00 00 00
5.373200 1  74c             Tx   d 8 27 00 80 00 00 00 00 00
5.374700 1  74c             Tx   d 8 28 00 00 80 00 00 00 00
5.376100 1  74c             Tx   d 8 29 00 00 00 80 00 00 00
5.377600 1  74c             Tx   d 8 2a 00 00 00 00 80 00 00
5.379200 1  74c             Tx   d 8 2b 00 00 00 00 00 80 00
5.381100 1  74c             Tx   d 8 2c 00 00 00 00 00 00 80
5.382800 1  74c             Tx   d 8 2d 00 00 00 00 00 00 00
5.384300 1  74c             Tx   d 8 2e 80 00 00 00 00 00 00
5.386300 1  74c             Tx   d 8 2f 00 80 00 00 00 00 00
5.388400 1  74c             Tx   d 8 20 00 00 80 00 00 00 00
5.389900 1  74c             Tx   d 8 21 00 00 00 80 00 00 00
5.391400 1  74c             Tx   d 8 22 00 00 00 aa aa aa aa
5.392200 1  75c             Rx   d 8 04 76 10 00 00 00 00 00
5.393700 1  74c             Tx   d 8 10 1e 36 11 00 80 00 00
5.394000 1  75c             Rx   d 8 30 00 01 00 00 00 00 00
5.395900 1  74c             Tx   d 8 21 00 00 00 00 00 80 00
5.397800 1  74c             Tx   d 8 22 00 00 00 00 00 00 80
5.399300 1  74c             Tx   d 8 23 00 00 00 00 00 00 00
5.400700 1  74c             Tx   d 8 24 80 00 90 aa aa aa aa
5.401100 1  75c             Rx   d 8 04 76 11 00 80 00 00 00
5.402800 1  74c             Tx   d 8 01 37 aa aa aa aa aa aa
5.403200 1  75c             Rx   d 8 01 77 00 00 00 00 00 00
5.404700 1  74c             Tx   d 8 10 0b 34 00 44 80 02 10
5.405000 1  75c             Rx   d 8 30 00 01 00 00 00 00 00
5.406700 1  74c             Tx   d 8 21 00 00 00 00 ee aa aa
5.407100 1  75c             Rx   d 8 03 74 10 80 00 00 00 00
5.409200 1  74c             Tx   d 8 10 80 36 01 0d 00 00 02
5.409500 1  75c             Rx   d 8 30 00 01 00 00 00 00 00
5.411200 1  74c             Tx   d 8 21 82 04 02 f5 1d 01 4e
5.412700 1  74c             Tx   d 8 22 1c 00 00 00 00 00 00
5.414100 1  74c             Tx   d 8 23 00 00 00 00 00 00 00
5.415600 1  74c             Tx   d 8 24 00 00 00 00 00 00 00
5.417100 1  74c             Tx   d 8 25 0d 00 00 02 82 14 02
5.418600 1  74c             Tx   d 8 26 f5 1d 01 3e 1c 00 00
5.420100 1  74c             Tx   d 8 27 00 00 00 00 00 00 00
5.421600 1  74c             Tx   d 8 28 00 00 00 00 00 00 00
5.423100 1  74c             Tx   d 8 29 00 00 00 00 0d 00 00
5.424600 1  74c             Tx   d 8 2a 02 82 24 02 f5 1d 01
5.426100 1  74c             Tx   d 8 2b 2e 1c 00 00 00 00 00
5.427500 1  74c             Tx   d 8 2c 00 00 00 00 00 00 00
5.429100 1  74c             Tx   d 8 2d 00 00 00 00 00 00 00
5.430600 1  74c             Tx   d 8 2e 00 0d 00 00 02 82 34
5.432000 1  74c             Tx   d 8 2f 02 f5 1d 01 1e 1c 00
5.433500 1  74c             Tx   d 8 20 00 00 00 00 00 00 00
5.434900 1  74c             Tx   d 8 21 00 00 00 00 00 00 00
5.436400 1  74c             Tx   d 8 22 00 00 00 aa aa aa aa
5.437200 1  75c             Rx   d 8 04 76 01 0d 00 00 00 00
5.439000 1  74c             Tx   d 8 10 72 36 02 00 00 0d 00
5.439300 1  75c             Rx   d 8 30 00 01 00 00 00 00 00
5.440900 1  74c             Tx   d 8 21 00 02 82 44 02 f5 1d
5.443300 1  74c             Tx   d 8 22 01 0e 1c 00 00 00 00
5.444800 1  74c             Tx   d 8 23 00 00 00 00 00 00 00
5.446400 1  74c             Tx   d 8 24 00 00 00 00 00 00 00
5.448400 1  74c             Tx   d 8 25 00 00 0d 00 00 02 82
5.450100 1  74c             Tx   d 8 26 54 02 f5 1d 01 fe 1b
5.451700 1  74c             Tx   d 8 27 00 00 00 00 00 00 00
5.453600 1  74c             Tx   d 8 28 00 00 00 00 00 00 00
5.455100 1  74c             Tx   d 8 29 00 00 00 00 00 00 0d
5.456600 1  74c             Tx   d 8 2a 00 00 02 82 64 02 f5
5.458100 1  74c             Tx   d 8 2b 1d 01 ee 1b 00 00 00
5.459600 1  74c             Tx   d 8 2c 00 00 00 00 00 00 00
5.461000 1  74c             Tx   d 8 2d 00 00 00 00 00 00 00
5.462600 1  74c             Tx   d 8 2e 00 00 00 0d 00 00 02
5.464100 1  74c             Tx   d 8 2f 82 74 02 f5 1d 01 de
5.465500 1  74c             Tx   d 8 20 1b 00 90 aa aa aa aa
5.466400 1  75c             Rx   d 8 04 76 02 00 00 00 00 00
5.468100 1  74c             Tx   d 8 01 37 aa aa aa aa aa aa
5.468500 1  75c             Rx   d 8 01 77 00 00 00 00 00 00
5.470500 1  74c             Tx   d 8 10 0b 34 00 44 80 02 11
5.470900 1  75c             Rx   d 8 30 00 01 00 00 00 00 00
5.472500 1  74c             Tx   d 8 21 00 00 00 00 44 aa aa
5.472800 1  75c             Rx   d 8 03 74 10 80 00 00 00 00
5.474900 1  74c             Tx   d 8 10 46 36 01 91 00 00 f7
5.475300 1  75c             Rx   d 8 30 00 01 00 00 00 00 00
5.476900 1  74c             Tx   d 8 21 d9 ff c0 93 91 00 00
5.478400 1  74c             Tx   d 8 22 27 d9 22 e0 e7 09 2f
5.479900 1  74c             Tx   d 8 23 c0 08 4b 0f 61 f1 7b
5.481500 1  74c             Tx   d 8 24 00 0a 04 4b 0f 41 f0
5.483400 1  74c             Tx   d 8 25 bb 50 fd 0f 9b f0 97
5.484800 1  74c             Tx   d 8 26 03 4b 0f 41 f0 bb d0
5.486300 1  74c             Tx   d 8 27 cc 0c 9b c0 dc 03 4b
5.487800 1  74c             Tx   d 8 28 0f 41 f0 7b c0 29 04
5.489300 1  74c             Tx   d 8 29 4b 0f 41 f0 6c f3 00
5.490800 1  74c             Tx   d 8 2a 90 aa aa aa aa aa aa
5.491500 1  75c             Rx   d 8 04 76 01 91 00 00 00 00
5.492900 1  74c             Tx   d 8 01 37 aa aa aa aa aa aa
5.493300 1  75c             Rx   d 8 01 77 00 00 00 00 00 00
5.495400 1  74c             Tx   d 8 10 0b 34 00 44 80 02 11
5.495700 1  75c             Rx   d 8 30 00 01 00 00 00 00 00
5.497300 1  74c             Tx   d 8 21 60 00 00 00 9c aa aa
5.497600 1  75c             Rx   d 8 03 74 10 80 00 00 00 00
5.499000 1  74c             Tx   d 8 10 80 36 01 20 20 91 20
5.499400 1  75c             Rx   d 8 30 00 01 00 00 00 00 00
5.501200 1  74c             Tx   d 8 21 00 f8 d9 ff 00 10 49
5.502700 1  74c             Tx   d 8 22 ff 00 0a 49 a2 00 0a
5.504200 1  74c             Tx   d 8 23 a0 75 44 ff 64 2f fc
5.505700 1  74c             Tx   d 8 24 5e 82 10 3c 0e 53 40
5.507200 1  74c             Tx   d 8 25 20 f0 10 4f 54 ff 4b
5.508600 1  74c             Tx   d 8 26 f4 01 f0 37 0f 61 f1
5.510100 1  74c             Tx   d 8 27 6e 02 3c 06 c2 10 37
5.511700 1  74c             Tx   d 8 28 00 70 00 3f 50 f3 ff
5.513700 1  74c             Tx   d 8 29 3f 50 05 80 c2 f5 37
5.515600 1  74c             Tx   d 8 2a 05 70 00 da 00 ac a2
5.517100 1  74c             Tx   d 8 2b 53 40 20 f0 10 4f 09
5.518600 1  74c             Tx   d 8 2c ff 3c f9 89 af 06 09
5.520100 1  74c             Tx   d 8 2d 9a f0 53 5f 20 f0 8b
5.521600 1  74c             Tx   d 8 2e 8f 1d f0 4b 0f 41 f1
5.523000 1  74c             Tx   d 8 2f 89 af 0a 09 53 40 20
5.524500 1  74c             Tx   d 8 20 f0 10 4f 54 ff 89 af
5.526000 1  74c             Tx   d 8 21 0e 09 53 50 20 f0 8b
5.527500 1  74c             Tx   d 8 22 8f 1d f0 aa aa aa aa
5.528300 1  75c             Rx   d 8 04 76 01 20 20 00 00 00
5.530200 1  74c             Tx   d 8 10 20 36 02 4b 0f 41 f1
5.530500 1  75c             Rx   d 8 30 00 01 00 00 00 00 00
5.532500 1  74c             Tx   d 8 21 89 af 12 09 89 a4 16
5.534500 1  74c             Tx   d 8 22 09 d4 af 49 a4 00 0a
5.536000 1  74c             Tx   d 8 23 2d 0f 00 00 09 a2 1a
5.537400 1  74c             Tx   d 8 24 09 3c 01 00 90 aa aa
5.537900 1  75c             Rx   d 8 04 76 02 4b 0f 00 00 00
5.539700 1  74c             Tx   d 8 01 37 aa aa aa aa aa aa
5.540100 1  75c             Rx   d 8 01 77 00 00 00 00 00 00
5.542000 1  74c             Tx   d 8 10 0b 34 00 44 80 02 12
5.542400 1  75c             Rx   d 8 30 00 01 00 00 00 00 00
5.544400 1  74c             Tx   d 8 21 00 00 00 00 a8 aa aa
5.544800 1  75c             Rx   d 8 03 74 10 80 00 00 00 00
5.546800 1  74c             Tx   d 8 10 80 36 01 91 20 00 c8
5.547100 1  75c             Rx   d 8 30 00 01 00 00 00 00 00
5.549000 1  74c             Tx   d 8 21 d9 cc 20 10 da 22 91
5.550800 1  74c             Tx   d 8 22 10 00 f7 d9 ff 20 38
5.552300 1  74c             Tx   d 8 23 09 f0 c0 08 4b 00 61
5.553800 1  74c             Tx   d 8 24 01 7b 00 0a 14 4b 10
5.555300 1  74c             Tx   d 8 25 41 00 bb 50 fd 1f 9b
5.556800 1  74c             Tx   d 8 26 f1 97 13 4b 10 41 00
5.558100 1  74c             Tx   d 8 27 7b 00 12 14 4b 10 41
5.559600 1  74c             Tx   d 8 28 10 3b 30 33 23 9b 32
5.561100 1  74c             Tx   d 8 29 05 24 6b 00 31 02 4b
5.562700 1  74c             Tx   d 8 2a 01 51 40 91 00 00 f7
5.564700 1  74c             Tx   d 8 2b d9 ff c0 93 40 c4 02
5.566600 1  74c             Tx   d 8 2c f5 6d ff 87 ff 68 62
5.568100 1  74c             Tx   d 8 2d 91 10 00 f7 d9 ff 00
5.569600 1  74c             Tx   d 8 2e 38 09 f0 c0 08 4b 00
5.571000 1  74c             Tx   d 8 2f 61 01 7b 00 0a 14 4b
5.572500 1  74c             Tx   d 8 20 10 41 00 bb 50 fd 1f
5.574100 1  74c             Tx   d 8 21 9b f1 97 13 4b 10 41
5.575500 1  74c             Tx   d 8 22 00 7b 00 aa aa aa aa
5.576300 1  75c             Rx   d 8 04 76 01 91 20 00 00 00
5.578000 1  74c             Tx   d 8 10 2c 36 02 12 14 4b 10
5.578300 1  75c             Rx   d 8 30 00 01 00 00 00 00 00
5.580000 1  74c             Tx   d 8 21 41 10 3b 30 33 23 9b
5.581500 1  74c             Tx   d 8 22 32 05 24 6b 00 31 02
5.582900 1  74c             Tx   d 8 23 4b 01 51 40 91 00 00
5.584400 1  74c             Tx   d 8 24 f7 d9 ff c0 93 40 c4
5.585900 1  74c             Tx   d 8 25 02 f5 6d ff 60 ff 68
5.587400 1  74c             Tx   d 8 26 72 00 90 aa aa aa aa
5.587900 1  75c             Rx   d 8 04 76 02 12 14 00 00 00
5.589500 1  74c             Tx   d 8 01 37 aa aa aa aa aa aa
5.589900 1  75c             Rx   d 8 01 77 00 00 00 00 00 00
5.591800 1  74c             Tx   d 8 10 0b 34 00 44 80 02 12
5.592100 1  75c             Rx   d 8 30 00 01 00 00 00 00 00
5.593900 1  74c             Tx   d 8 21 c0 00 00 00 94 aa aa
5.594200 1  75c             Rx   d 8 03 74 10 80 00 00 00 00
5.596700 1  74c             Tx   d 8 10 80 36 01 91 00 00 f7
5.597000 1  75c             Rx   d 8 30 00 01 00 00 00 00 00
5.598800 1  74c             Tx   d 8 21 d9 ff 80 37 14 ff 1e
5.600300 1  74c             Tx   d 8 22 78 91 00 00 f7 d9 ff
5.601800 1  74c             Tx   d 8 23 a0 37 14 ff df 7f 3e
5.603400 1  74c             Tx   d 8 24 80 09 40 c0 08 09 41
5.605200 1  74c             Tx   d 8 25 c0 08 82 12 3c 1b 53
5.607100 1  74c             Tx   d 8 26 22 20 f0 10 4f 09 ff
5.608500 1  74c             Tx   d 8 27 c0 08 7f 0f 08 80 53
5.610000 1  74c             Tx   d 8 28 22 20 f0 10 4f 09 f0
5.611600 1  74c             Tx   d 8 29 c0 08 3c 0d 53 22 20
5.613100 1  74c             Tx   d 8 2a f0 10 4f 09 ff c0 08
5.615000 1  74c             Tx   d 8 2b 7f f1 07 80 53 22 20
5.616500 1  74c             Tx   d 8 2c f0 10 4f 09 f1 c0 08
5.618000 1  74c             Tx   d 8 2d c2 12 bf 72 e6 ff da
5.619400 1  74c             Tx   d 8 2e 00 ac 47 82 03 3c 0c
5.620900 1  74c             Tx   d 8 2f 09 42 ce 08 53 23 20
5.622500 1  74c             Tx   d 8 20 f0 10 4f 09 ff c0 08
5.623900 1  74c             Tx   d 8 21 42 f2 89 42 8e 08 c2
5.625400 1  74c             Tx   d 8 22 13 bf 73 aa aa aa aa
5.626200 1  75c             Rx   d 8 04 76 01 91 00 00 00 00
5.627800 1  74c             Tx   d 8 10 18 36 02 f5 ff 09 4f
5.628100 1  75c             Rx   d 8 30 00 01 00 00 00 00 00
5.630000 1  74c             Tx   d 8 21 ce 08 a2 0f a2 1f 82
5.631400 1  74c             Tx   d 8 22 50 4b 0f 01 02 89 40
5.632900 1  74c             Tx   d 8 23 8e 08 00 90 aa aa aa
5.633400 1  75c             Rx   d 8 04 76 02 f5 ff 00 00 00
5.635100 1  74c             Tx   d 8 01 37 aa aa aa aa aa aa
5.635400 1  75c             Rx   d 8 01 77 00 00 00 00 00 00
5.637300 1  74c             Tx   d 8 10 0b 34 00 44 80 02 13
5.637600 1  75c             Rx   d 8 30 00 01 00 00 00 00 00
5.639300 1  74c             Tx   d 8 21 60 00 00 00 66 aa aa
5.639700 1  75c             Rx   d 8 03 74 10 80 00 00 00 00
5.641700 1  74c             Tx   d 8 10 68 36 01 91 00 00 f7
5.642000 1  75c             Rx   d 8 30 00 01 00 00 00 00 00
5.643800 1  74c             Tx   d 8 21 d9 ff a0 07 14 ff df
5.645300 1  74c             Tx   d 8 22 1f 2d 80 91 00 00 f7
5.646800 1  74c             Tx   d 8 23 d9 ff a0 07 da 00 34
5.648200 1  74c             Tx   d 8 24 ff 91 10 00 f7 d9 ff
5.649700 1  74c             Tx   d 8 25 20 38 91 00 00 27 d9
5.651200 1  74c             Tx   d 8 26 22 a0 a7 09 2f c0 08
5.652700 1  74c             Tx   d 8 27 b4 ff 91 00 00 f7 d9
5.654200 1  74c             Tx   d 8 28 ff e0 e7 91 00 00 27
5.655700 1  74c             Tx   d 8 29 d9 22 80 e7 09 2f c0
5.657500 1  74c             Tx   d 8 2a 08 b4 ff 91 10 00 f7
5.659300 1  74c             Tx   d 8 2b d9 ff 00 38 91 00 00
5.661000 1  74c             Tx   d 8 2c 27 d9 22 e0 07 09 2f
5.663000 1  74c             Tx   d 8 2d c0 08 b4 ff 6d ff a2
5.665100 1  74c             Tx   d 8 2e fe 6d ff 20 ff 00 90
5.665900 1  75c             Rx   d 8 04 76 01 91 00 00 00 00
5.667000 1  74c             Tx   d 8 01 37 aa aa aa aa aa aa
5.667400 1  75c             Rx   d 8 01 77 00 00 00 00 00 00
5.669600 1  74c             Tx   d 8 10 0b 34 00 44 80 02 13
5.670000 1  75c             Rx   d 8 30 00 01 00 00 00 00 00
5.671800 1  74c             Tx   d 8 21 e0 00 00 01 72 aa aa
5.672200 1  75c             Rx   d 8 03 74 10 80 00 00 00 00
5.674600 1  74c             Tx   d 8 10 80 36 01 91 00 00 f7
5.675000 1  75c             Rx   d 8 30 00 01 00 00 00 00 00
5.676800 1  74c             Tx   d 8 21 d9 ff 40 c7 d4 ff 48
5.678300 1  74c             Tx   d 8 22 4f 3c 01 91 00 00 f7
5.679800 1  74c             Tx   d 8 23 d9 ff 00 55 89 ff 20
5.681300 1  74c             Tx   d 8 24 19 91 00 00 f7 d9 ff
5.683200 1  74c             Tx   d 8 25 00 55 91 00 00 27 d9
5.684700 1  74c             Tx   d 8 26 22 00 55 09 20 24 19
5.686200 1  74c             Tx   d 8 27 a2 0f 89 ff 28 19 91
5.687700 1  74c             Tx   d 8 28 00 00 f7 d9 ff 00 55
5.689200 1  74c             Tx   d 8 29 91 00 00 27 d9 22 00
5.690600 1  74c             Tx   d 8 2a 55 09 2f 20 19 89 ff
5.692100 1  74c             Tx   d 8 2b 24 19 da 00 3c 04 6d
5.693600 1  74c             Tx   d 8 2c 00 08 20 c2 1f bf 4f
5.695200 1  74c             Tx   d 8 2d fd 7f 91 00 00 f7 d9
5.696700 1  74c             Tx   d 8 2e ff 80 37 14 ff ff 7f
5.698100 1  74c             Tx   d 8 2f 47 80 91 00 00 f7 d9
5.699600 1  74c             Tx   d 8 20 ff 80 37 14 ff 53 2f
5.701100 1  74c             Tx   d 8 21 20 f0 91 00 00 f7 d9
5.702500 1  74c             Tx   d 8 22 ff a0 17 aa aa aa aa
5.703300 1  75c             Rx   d 8 04 76 01 91 00 00 00 00
5.704900 1  74c             Tx   d 8 10 80 36 02 10 ff 91 00
5.705300 1  75c             Rx   d 8 30 00 01 00 00 00 00 00
5.707000 1  74c             Tx   d 8 21 00 27 d9 22 00 64 09
5.708500 1  74c             Tx   d 8 22 2f d4 08 b4 ff 91 00
5.710000 1  74c             Tx   d 8 23 00 f7 d9 ff 80 37 14
5.711500 1  74c             Tx   d 8 24 ff 53 2f 20 f0 91 00
5.713000 1  74c             Tx   d 8 25 00 f7 d9 ff 80 27 10
5.714500 1  74c             Tx   d 8 26 ff 91 00 00 27 d9 22
5.715900 1  74c             Tx   d 8 27 00 64 09 2f e2 08 b4
5.717400 1  74c             Tx   d 8 28 ff 91 00 00 f7 d9 ff
5.718900 1  74c             Tx   d 8 29 80 37 14 ff 53 2f 20
5.720400 1  74c             Tx   d 8 2a f0 91 00 00 f7 d9 ff
5.721900 1  74c             Tx   d 8 2b a0 27 10 ff 91 00 00
5.723500 1  74c             Tx   d 8 2c 27 d9 22 00 64 09 2f
5.725700 1  74c             Tx   d 8 2d ec 08 b4 ff 91 00 00
5.727400 1  74c             Tx   d 8 2e f7 d9 ff 80 37 91 00
5.728900 1  74c             Tx   d 8 2f 00 27 d9 22 80 37 14
5.731000 1  74c             Tx   d 8 20 2f c2 1f 34 ff 3c 07
5.733000 1  74c             Tx   d 8 21 91 00 00 f7 d9 ff 80
5.734900 1  74c             Tx   d 8 22 37 da 00 aa aa aa aa
5.735700 1  75c             Rx   d 8 04 76 02 10 ff 00 00 00
5.737300 1  74c             Tx   d 8 10 78 36 03 34 ff 91 00
5.737600 1  75c             Rx   d 8 30 00 01 00 00 00 00 00
5.739300 1  74c             Tx   d 8 21 00 47 d9 44 a0 17 6d
5.740800 1  74c             Tx   d 8 22 ff ed fe 91 00 00 f7
5.742300 1  74c             Tx   d 8 23 d9 ff a0 a7 91 00 00
5.743700 1  74c             Tx   d 8 24 27 d9 22 a0 17 09 2f
5.745300 1  74c             Tx   d 8 25 ce 08 b4 ff 91 00 00
5.746700 1  74c             Tx   d 8 26 47 d9 44 80 27 6d ff
5.748200 1  74c             Tx   d 8 27 dc fe 91 00 00 f7 d9
5.749700 1  74c             Tx   d 8 28 ff 80 e7 91 00 00 27
5.751100 1  74c             Tx   d 8 29 d9 22 80 27 09 2f ce
5.752700 1  74c             Tx   d 8 2a 08 b4 ff 91 00 00 47
5.754100 1  74c             Tx   d 8 2b d9 44 a0 27 6d ff cb
5.755600 1  74c             Tx   d 8 2c fe 91 00 00 f7 d9 ff
5.757100 1  74c             Tx   d 8 2d e0 07 91 00 00 27 d9
5.758600 1  74c             Tx   d 8 2e 22 a0 27 09 2f ce 08
5.760100 1  74c             Tx   d 8 2f b4 ff 91 00 00 f7 d9
5.761600 1  74c             Tx   d 8 20 ff a0 07 da 01 34 ff
5.763100 1  74c             Tx   d 8 21 00 90 aa aa aa aa aa
5.763900 1  75c             Rx   d 8 04 76 03 34 ff 00 00 00
5.765300 1  74c             Tx   d 8 01 37 aa aa aa aa aa aa
5.765600 1  75c             Rx   d 8 01 77 00 00 00 00 00 00
5.767500 1  74c             Tx   d 8 10 0b 34 00 44 80 02 15
5.767800 1  75c             Rx   d 8 30 00 01 00 00 00 00 00
5.769500 1  74c             Tx   d 8 21 60 00 00 00 46 aa aa
5.769900 1  75c             Rx   d 8 03 74 10 80 00 00 00 00
5.772000 1  74c             Tx   d 8 10 48 36 01 91 00 00 47
5.772300 1  75c             Rx   d 8 30 00 01 00 00 00 00 00
5.774000 1  74c             Tx   d 8 21 d9 44 e0 93 6d 00 cc
5.775500 1  74c             Tx   d 8 22 5e 91 00 00 27 d9 22
5.777000 1  74c             Tx   d 8 23 e0 93 91 00 00 f7 d9
5.778500 1  74c             Tx   d 8 24 ff e0 93 48 1f 89 2f
5.780500 1  74c             Tx   d 8 25 28 29 91 00 00 27 d9
5.781900 1  74c             Tx   d 8 26 22 e0 93 91 00 00 f7
5.783500 1  74c             Tx   d 8 27 d9 ff e0 93 48 1f 91
5.785200 1  74c             Tx   d 8 28 00 00 f7 d9 ff e0 93
5.786000 1  7df             Tx   d 8 02 3e 80 aa aa aa aa aa
5.787100 1  74c             Tx   d 8 29 48 20 a2 0f 89 2f 2c
5.788900 1  74c             Tx   d 8 2a 29 00 90 aa aa aa aa
7.791300 1  74c             Tx   d 8 10 48 36 01 91 00 00 47
7.791600 1  75c             Rx   d 8 30 00 01 00 00 00 00 00
7.793700 1  74c             Tx   d 8 21 d9 44 e0 93 6d 00 cc
7.795600 1  74c             Tx   d 8 22 5e 91 00 00 27 d9 22
7.797000 1  74c             Tx   d 8 23 e0 93 91 00 00 f7 d9
7.798500 1  74c             Tx   d 8 24 ff e0 93 48 1f 89 2f
7.800100 1  74c             Tx   d 8 25 28 29 91 00 00 27 d9
7.802000 1  74c             Tx   d 8 26 22 e0 93 91 00 00 f7
7.803600 1  74c             Tx   d 8 27 d9 ff e0 93 48 1f 91
7.805100 1  74c             Tx   d 8 28 00 00 f7 d9 ff e0 93
7.806800 1  74c             Tx   d 8 29 48 20 a2 0f 89 2f 2c
7.808300 1  74c             Tx   d 8 2a 29 00 90 aa aa aa aa
7.809000 1  75c             Rx   d 8 04 76 01 91 00 00 00 00
7.810600 1  74c             Tx   d 8 01 37 aa aa aa aa aa aa
7.811000 1  75c             Rx   d 8 01 77 00 00 00 00 00 00
7.812900 1  74c             Tx   d 8 10 0b 34 00 44 80 02 15
7.813200 1  75c             Rx   d 8 30 00 01 00 00 00 00 00
7.814800 1  74c             Tx   d 8 21 c0 00 00 00 3e aa aa
7.815100 1  75c             Rx   d 8 03 74 10 80 00 00 00 00
7.817200 1  74c             Tx   d 8 10 40 36 01 91 00 01 cf
7.817500 1  75c             Rx   d 8 30 00 01 00 00 00 00 00
7.819500 1  74c             Tx   d 8 21 40 c4 6d 01 1b 34 02
7.821300 1  74c             Tx   d 8 22 2f 40 c4 6d 01 7a 33
7.822800 1  74c             Tx   d 8 23 91 20 00 f8 d9 ff 00
7.824300 1  74c             Tx   d 8 24 40 08 e4 40 c4 02 f5
7.825700 1  74c             Tx   d 8 25 6d 01 1c 34 91 00 00
7.827300 1  74c             Tx   d 8 26 f7 d9 ff e0 93 49 f4
7.828700 1  74c             Tx   d 8 27 00 1a 91 20 00 58 d9
7.830200 1  74c             Tx   d 8 28 55 00 40 6d 00 d4 5c
7.831700 1  74c             Tx   d 8 29 00 90 aa aa aa aa aa
7.832300 1  75c             Rx   d 8 04 76 01 91 00 00 00 00
7.833800 1  74c             Tx   d 8 01 37 aa aa aa aa aa aa
7.834200 1  75c             Rx   d 8 01 77 00 00 00 00 00 00
7.835600 1  74c             Tx   d 8 10 0b 34 00 44 80 02 16
7.835900 1  75c             Rx   d 8 30 00 01 00 00 00 00 00
7.837700 1  74c             Tx   d 8 21 00 00 00 00 3e aa aa
7.838000 1  75c             Rx   d 8 03 74 10 80 00 00 00 00
7.840100 1  74c             Tx   d 8 10 40 36 01 91 00 01 cf
7.840400 1  75c             Rx   d 8 30 00 01 00 00 00 00 00
7.842100 1  74c             Tx   d 8 21 40 c4 6d 01 fb 33 02
7.843600 1  74c             Tx   d 8 22 2f 40 c4 6d 01 5a 33
7.845100 1  74c             Tx   d 8 23 91 20 00 f8 d9 ff 00
7.846600 1  74c             Tx   d 8 24 50 08 e4 40 c4 02 f5
7.848100 1  74c             Tx   d 8 25 6d 01 fc 33 91 00 00
7.849600 1  74c             Tx   d 8 26 f7 d9 ff e0 93 49 f4
7.851100 1  74c             Tx   d 8 27 20 1a 91 20 00 58 d9
7.852500 1  74c             Tx   d 8 28 55 00 50 6d 00 b4 5c
7.854000 1  74c             Tx   d 8 29 00 90 aa aa aa aa aa
7.854600 1  75c             Rx   d 8 04 76 01 91 00 00 00 00
7.856200 1  74c             Tx   d 8 01 37 aa aa aa aa aa aa
7.856500 1  75c             Rx   d 8 01 77 00 00 00 00 00 00
7.858500 1  74c             Tx   d 8 10 0b 34 00 44 80 02 16
7.858800 1  75c             Rx   d 8 30 00 01 00 00 00 00 00
7.860500 1  74c             Tx   d 8 21 40 00 00 00 58 aa aa
7.860900 1  75c             Rx   d 8 03 74 10 80 00 00 00 00
7.863100 1  74c             Tx   d 8 10 5a 36 01 91 00 01 cf
7.863400 1  75c             Rx   d 8 30 00 01 00 00 00 00 00
7.864900 1  74c             Tx   d 8 21 40 c4 6d 01 db 33 02
7.866500 1  74c             Tx   d 8 22 2f 40 c4 6d 01 3a 33
7.867900 1  74c             Tx   d 8 23 91 20 00 f8 d9 ff 00
7.869400 1  74c             Tx   d 8 24 60 08 e4 40 c4 02 f5
7.870900 1  74c             Tx   d 8 25 6d 01 dc 33 91 00 00
7.872400 1  74c             Tx   d 8 26 f7 d9 ff e0 93 49 f4
7.873900 1  74c             Tx   d 8 27 00 2a 91 20 00 58 d9
7.875400 1  74c             Tx   d 8 28 55 00 60 6d 00 94 5c
7.876900 1  74c             Tx   d 8 29 91 20 00 f8 d9 ff 00
7.878500 1  74c             Tx   d 8 2a 60 08 e4 40 c4 6d 01
7.880300 1  74c             Tx   d 8 2b be 33 f6 25 82 24 40
7.881800 1  74c             Tx   d 8 2c c4 6d 01 40 33 00 90
7.882500 1  75c             Rx   d 8 04 76 01 91 00 00 00 00
7.884000 1  74c             Tx   d 8 01 37 aa aa aa aa aa aa
7.884300 1  75c             Rx   d 8 01 77 00 00 00 00 00 00
7.886300 1  74c             Tx   d 8 10 0b 34 00 44 80 02 16
7.886700 1  75c             Rx   d 8 30 00 01 00 00 00 00 00
7.888300 1  74c             Tx   d 8 21 a0 00 00 00 ca aa aa
7.888600 1  75c             Rx   d 8 03 74 10 80 00 00 00 00
7.890700 1  74c             Tx   d 8 10 80 36 01 91 00 01 cf
7.891000 1  75c             Rx   d 8 30 00 01 00 00 00 00 00
7.892700 1  74c             Tx   d 8 21 40 c4 6d 01 ab 33 02
7.894200 1  74c             Tx   d 8 22 2f 40 c4 6d 01 0a 33
7.895700 1  74c             Tx   d 8 23 91 20 00 f8 d9 ff 00
7.897200 1  74c             Tx   d 8 24 70 08 e4 40 c4 02 f5
7.898700 1  74c             Tx   d 8 25 6d 01 ac 33 91 00 00
7.900200 1  74c             Tx   d 8 26 f7 d9 ff e0 93 49 f4
7.901600 1  74c             Tx   d 8 27 20 0a 91 20 00 58 d9
7.903100 1  74c             Tx   d 8 28 55 00 70 6d 00 64 5c
7.904600 1  74c             Tx   d 8 29 91 20 00 f8 d9 ff 00
7.906100 1  74c             Tx   d 8 2a 80 08 e4 40 c4 02 f5
7.907600 1  74c             Tx   d 8 2b 6d 01 97 33 91 00 00
7.909100 1  74c             Tx   d 8 2c 47 d9 44 e0 93 91 20
7.910600 1  74c             Tx   d 8 2d 00 58 d9 55 00 80 6d
7.912100 1  74c             Tx   d 8 2e 00 51 5c 91 20 00 f8
7.913500 1  74c             Tx   d 8 2f d9 ff 00 80 08 e4 40
7.915000 1  74c             Tx   d 8 20 c4 6d 01 7b 33 f6 26
7.916500 1  74c             Tx   d 8 21 bb 00 00 48 40 c4 6d
7.918000 1  74c             Tx   d 8 22 01 fc 32 aa aa aa aa
7.918800 1  75c             Rx   d 8 04 76 01 91 00 00 00 00
7.920600 1  74c             Tx   d 8 10 4e 36 02 00 90 91 00
7.920900 1  75c             Rx   d 8 30 00 01 00 00 00 00 00
7.922500 1  74c             Tx   d 8 21 00 f7 d9 ff e0 93 49
7.924500 1  74c             Tx   d 8 22 f4 20 0a 6d 00 ea 5d
7.926000 1  74c             Tx   d 8 23 91 00 00 27 d9 22 e0
7.927500 1  74c             Tx   d 8 24 93 91 00 00 f7 d9 ff
7.929000 1  74c             Tx   d 8 25 e0 93 48 9f 89 2f 20
7.930400 1  74c             Tx   d 8 26 29 91 00 00 27 d9 22
7.931900 1  74c             Tx   d 8 27 e0 93 91 00 00 f7 d9
7.933400 1  74c             Tx   d 8 28 ff e0 93 48 9f 91 00
7.934900 1  74c             Tx   d 8 29 00 f7 d9 ff e0 93 48
7.936400 1  74c             Tx   d 8 2a a0 a2 0f 89 2f 24 29
7.937900 1  74c             Tx   d 8 2b 00 90 aa aa aa aa aa
7.938600 1  75c             Rx   d 8 04 76 02 00 90 00 00 00
7.940100 1  74c             Tx   d 8 01 37 aa aa aa aa aa aa
7.940400 1  75c             Rx   d 8 01 77 00 00 00 00 00 00
7.942400 1  74c             Tx   d 8 10 0b 34 00 44 80 02 17
7.942700 1  75c             Rx   d 8 30 00 01 00 00 00 00 00
7.944400 1  74c             Tx   d 8 21 80 00 00 00 66 aa aa
7.944700 1  75c             Rx   d 8 03 74 10 80 00 00 00 00
7.946900 1  74c             Tx   d 8 10 68 36 01 91 00 00 f7
7.947200 1  75c             Rx   d 8 30 00 01 00 00 00 00 00
7.948800 1  74c             Tx   d 8 21 d9 ff 00 30 d4 f4 6d
7.950300 1  74c             Tx   d 8 22 01 39 33 02 2f 91 00
7.951700 1  74c             Tx   d 8 23 00 f7 d9 ff 00 30 d4
7.953200 1  74c             Tx   d 8 24 f4 6d 01 94 32 91 00
7.954700 1  74c             Tx   d 8 25 00 f7 d9 ff 00 30 d4
7.956200 1  74c             Tx   d 8 26 f4 02 f4 6d 01 88 33
7.957700 1  74c             Tx   d 8 27 6d 00 b9 01 6d 00 f7
7.959200 1  74c             Tx   d 8 28 0a 6d 00 75 15 6d 00
7.960700 1  74c             Tx   d 8 29 23 19 91 00 00 f7 d9
7.962300 1  74c             Tx   d 8 2a ff 00 30 d4 ff 19 ff
7.964100 1  74c             Tx   d 8 2b 00 c0 37 0f 62 fb 1e
7.965700 1  74c             Tx   d 8 2c 3a 91 00 00 f7 d9 ff
7.967100 1  74c             Tx   d 8 2d 00 30 d4 ff 7b 00 08
7.968700 1  74c             Tx   d 8 2e f0 59 ff 00 c0 00 90
7.969500 1  75c             Rx   d 8 04 76 01 91 00 00 00 00
7.971200 1  74c             Tx   d 8 01 37 aa aa aa aa aa aa
7.971600 1  75c             Rx   d 8 01 77 00 00 00 00 00 00
7.973900 1  74c             Tx   d 8 10 0b 34 00 44 80 02 18
7.974300 1  75c             Rx   d 8 30 00 01 00 00 00 00 00
7.976100 1  74c             Tx   d 8 21 00 00 00 00 b2 aa aa
7.976400 1  75c             Rx   d 8 03 74 10 80 00 00 00 00
7.978800 1  74c             Tx   d 8 10 80 36 01 91 20 00 f8
7.979100 1  75c             Rx   d 8 30 00 01 00 00 00 00 00
7.981000 1  74c             Tx   d 8 21 d9 ff 00 d0 09 ff 68
7.982500 1  74c             Tx   d 8 22 08 3b 00 80 00 e2 0f
7.984000 1  74c             Tx   d 8 23 91 00 00 f7 d9 ff 00
7.985500 1  74c             Tx   d 8 24 30 d4 ff 10 ff 91 20
7.987000 1  74c             Tx   d 8 25 00 28 d9 22 00 d0 09
7.988500 1  74c             Tx   d 8 26 2f 68 08 3b 00 80 00
7.990000 1  74c             Tx   d 8 27 e2 0f 91 00 00 27 d9
7.991400 1  74c             Tx   d 8 28 22 00 30 d4 22 10 22
7.992900 1  74c             Tx   d 8 29 91 10 00 30 30 23 d9
7.994400 1  74c             Tx   d 8 2a 33 38 08 54 3f b7 2f
7.995900 1  74c             Tx   d 8 2b 02 f8 91 10 00 30 30
7.997400 1  74c             Tx   d 8 2c f3 d9 33 38 08 74 3f
7.998900 1  74c             Tx   d 8 2d 91 20 00 f8 d9 ff 00
8.000400 1  74c             Tx   d 8 2e d0 09 ff 68 08 3b 00
8.001800 1  74c             Tx   d 8 2f 80 00 e2 0f 91 00 00
8.003400 1  74c             Tx   d 8 20 f7 d9 ff 00 30 d4 ff
8.004900 1  74c             Tx   d 8 21 10 ff 91 20 00 28 d9
8.006400 1  74c             Tx   d 8 22 22 00 d0 aa aa aa aa
8.007200 1  75c             Rx   d 8 04 76 01 91 20 00 00 00
8.009000 1  74c             Tx   d 8 10 36 36 02 09 2f 68 08
8.009300 1  75c             Rx   d 8 30 00 01 00 00 00 00 00
8.010900 1  74c             Tx   d 8 21 3b 00 80 00 e2 0f 91
8.012500 1  74c             Tx   d 8 22 00 00 27 d9 22 00 30
8.014300 1  74c             Tx   d 8 23 d4 22 10 22 91 10 00
8.015800 1  74c             Tx   d 8 24 30 30 23 d9 33 30 18
8.017300 1  74c             Tx   d 8 25 54 3f b7 2f 02 f0 91
8.018800 1  74c             Tx   d 8 26 10 00 30 30 f3 d9 33
8.020300 1  74c             Tx   d 8 27 30 18 74 3f 00 90 aa
8.020900 1  75c             Rx   d 8 04 76 02 09 2f 00 00 00
8.022400 1  74c             Tx   d 8 01 37 aa aa aa aa aa aa
8.022700 1  75c             Rx   d 8 01 77 00 00 00 00 00 00
8.024100 1  74c             Tx   d 8 10 0b 34 00 44 80 02 18
8.024400 1  75c             Rx   d 8 30 00 01 00 00 00 00 00
8.026200 1  74c             Tx   d 8 21 c0 00 00 00 b0 aa aa
8.026600 1  75c             Rx   d 8 03 74 10 80 00 00 00 00
8.029100 1  74c             Tx   d 8 10 80 36 01 91 20 00 f8
8.029400 1  75c             Rx   d 8 30 00 01 00 00 00 00 00
8.031200 1  74c             Tx   d 8 21 d9 ff 00 d0 09 ff 68
8.032700 1  74c             Tx   d 8 22 08 3b 00 80 00 e2 0f
8.034100 1  74c             Tx   d 8 23 91 00 00 f7 d9 ff 00
8.035600 1  74c             Tx   d 8 24 30 d4 ff 10 ff 91 20
8.037100 1  74c             Tx   d 8 25 00 28 d9 22 00 d0 09
8.038600 1  74c             Tx   d 8 26 2f 68 08 3b 00 80 00
8.040100 1  74c             Tx   d 8 27 e2 0f 91 00 00 27 d9
8.041600 1  74c             Tx   d 8 28 22 00 30 d4 22 10 22
8.043100 1  74c             Tx   d 8 29 91 10 00 30 30 23 d9
8.044600 1  74c             Tx   d 8 2a 33 38 08 54 3f b7 2f
8.046100 1  74c             Tx   d 8 2b 02 f0 91 10 00 30 30
8.047600 1  74c             Tx   d 8 2c f3 d9 33 38 08 74 3f
8.049100 1  74c             Tx   d 8 2d 91 20 00 f8 d9 ff 00
8.050500 1  74c             Tx   d 8 2e d0 09 ff 68 08 3b 00
8.052100 1  74c             Tx   d 8 2f 80 00 e2 0f 91 00 00
8.053700 1  74c             Tx   d 8 20 f7 d9 ff 00 30 d4 ff
8.055700 1  74c             Tx   d 8 21 10 ff 91 20 00 28 d9
8.057100 1  74c             Tx   d 8 22 22 00 d0 aa aa aa aa
8.057900 1  75c             Rx   d 8 04 76 01 91 20 00 00 00
8.059500 1  74c             Tx   d 8 10 34 36 02 09 2f 68 08
8.059900 1  75c             Rx   d 8 30 00 01 00 00 00 00 00
8.061400 1  74c             Tx   d 8 21 3b 00 80 00 e2 0f 91
8.063100 1  74c             Tx   d 8 22 00 00 27 d9 22 00 30
8.065000 1  74c             Tx   d 8 23 d4 22 10 22 91 10 00
8.066400 1  74c             Tx   d 8 24 30 30 23 d9 33 30 08
8.067900 1  74c             Tx   d 8 25 54 3f 96 01 91 10 00
8.069400 1  74c             Tx   d 8 26 30 30 f3 d9 33 30 08
8.070900 1  74c             Tx   d 8 27 74 3f 00 90 aa aa aa
8.071400 1  75c             Rx   d 8 04 76 02 09 2f 00 00 00
8.073200 1  74c             Tx   d 8 01 37 aa aa aa aa aa aa
8.073600 1  75c             Rx   d 8 01 77 00 00 00 00 00 00
8.075400 1  74c             Tx   d 8 10 0b 34 00 44 80 02 19
8.075700 1  75c             Rx   d 8 30 00 01 00 00 00 00 00
8.077300 1  74c             Tx   d 8 21 80 00 00 01 88 aa aa
8.077700 1  75c             Rx   d 8 03 74 10 80 00 00 00 00
8.079300 1  74c             Tx   d 8 10 80 36 01 91 20 00 f8
8.079600 1  75c             Rx   d 8 30 00 01 00 00 00 00 00
8.081300 1  74c             Tx   d 8 21 d9 ff 00 d0 09 ff 68
8.082800 1  74c             Tx   d 8 22 08 3b 00 80 00 e2 0f
8.084200 1  74c             Tx   d 8 23 91 00 00 f7 d9 ff 00
8.085700 1  74c             Tx   d 8 24 30 d4 ff 10 ff 91 20
8.087200 1  74c             Tx   d 8 25 00 28 d9 22 00 d0 09
8.088700 1  74c             Tx   d 8 26 2f 68 08 3b 00 80 00
8.090200 1  74c             Tx   d 8 27 e2 0f 91 00 00 27 d9
8.091700 1  74c             Tx   d 8 28 22 00 30 d4 22 10 22
8.093200 1  74c             Tx   d 8 29 91 10 00 30 30 23 d9
8.094600 1  74c             Tx   d 8 2a 33 30 08 54 3f b7 1f
8.096200 1  74c             Tx   d 8 2b 02 f8 91 10 00 30 30
8.097600 1  74c             Tx   d 8 2c f3 d9 33 30 08 74 3f
8.099100 1  74c             Tx   d 8 2d 91 20 00 f8 d9 ff 00
8.100600 1  74c             Tx   d 8 2e d0 09 ff 68 08 3b 00
8.102100 1  74c             Tx   d 8 2f 80 00 e2 0f 91 00 00
8.103600 1  74c             Tx   d 8 20 f7 d9 ff 00 30 d4 ff
8.105100 1  74c             Tx   d 8 21 10 ff 91 20 00 28 d9
8.106600 1  74c             Tx   d 8 22 22 00 d0 aa aa aa aa
8.107400 1  75c             Rx   d 8 04 76 01 91 20 00 00 00
8.109000 1  74c             Tx   d 8 10 80 36 02 09 2f 68 08
8.109300 1  75c             Rx   d 8 30 00 01 00 00 00 00 00
8.111100 1  74c             Tx   d 8 21 3b 00 80 00 e2 0f 91
8.112500 1  74c             Tx   d 8 22 00 00 27 d9 22 00 30
8.114000 1  74c             Tx   d 8 23 d4 22 10 22 91 10 00
8.115500 1  74c             Tx   d 8 24 30 30 23 d9 33 04 08
8.117000 1  74c             Tx   d 8 25 54 3f 37 4f 10 f0 91
8.118500 1  74c             Tx   d 8 26 10 00 30 30 f3 d9 33
8.120000 1  74c             Tx   d 8 27 04 08 74 3f 91 20 00
8.121500 1  74c             Tx   d 8 28 f8 d9 ff 00 d0 09 ff
8.123000 1  74c             Tx   d 8 29 68 08 3b 00 80 00 e2
8.124800 1  74c             Tx   d 8 2a 0f 91 00 00 f7 d9 ff
8.126400 1  74c             Tx   d 8 2b 00 30 d4 ff 10 ff 91
8.128000 1  74c             Tx   d 8 2c 20 00 28 d9 22 00 d0
8.129500 1  74c             Tx   d 8 2d 09 2f 68 08 3b 00 80
8.130900 1  74c             Tx   d 8 2e 00 e2 0f 91 00 00 27
8.132500 1  74c             Tx   d 8 2f d9 22 00 30 d4 22 10
8.134500 1  74c             Tx   d 8 20 22 91 10 00 30 30 23
8.136500 1  74c             Tx   d 8 21 d9 33 08 08 54 3f 8f
8.138000 1  74c             Tx   d 8 22 f4 1f 00 aa aa aa aa
8.138800 1  75c             Rx   d 8 04 76 02 09 2f 00 00 00
8.140500 1  74c             Tx   d 8 10 80 36 03 37 0f 10 f0
8.140800 1  75c             Rx   d 8 30 00 01 00 00 00 00 00
8.143000 1  74c             Tx   d 8 21 91 10 00 30 30 f3 d9
8.144700 1  74c             Tx   d 8 22 33 08 08 74 3f 91 20
8.146600 1  74c             Tx   d 8 23 00 f8 d9 ff 00 d0 09
8.148100 1  74c             Tx   d 8 24 ff 68 08 3b 00 80 00
8.149600 1  74c             Tx   d 8 25 e2 0f 91 00 00 f7 d9
8.151100 1  74c             Tx   d 8 26 ff 00 30 d4 ff 10 ff
8.152600 1  74c             Tx   d 8 27 91 20 00 28 d9 22 00
8.154100 1  74c             Tx   d 8 28 d0 09 2f 68 08 3b 00
8.155600 1  74c             Tx   d 8 29 80 00 e2 0f 91 00 00
8.157100 1  74c             Tx   d 8 2a 27 d9 22 00 30 d4 22
8.158600 1  74c             Tx   d 8 2b 10 22 91 10 00 30 30
8.160000 1  74c             Tx   d 8 2c 23 d9 33 30 08 54 3f
8.161600 1  74c             Tx   d 8 2d b7 2f 02 f8 91 10 00
8.163000 1  74c             Tx   d 8 2e 30 30 f3 d9 33 30 08
8.164500 1  74c             Tx   d 8 2f 74 3f 91 00 00 f7 d9
8.166000 1  74c             Tx   d 8 20 ff 20 40 da 01 34 ff
8.167500 1  74c             Tx   d 8 21 91 00 00 f7 d9 ff 00
8.169000 1  74c             Tx   d 8 22 40 da 01 aa aa aa aa
8.169800 1  75c             Rx   d 8 04 76 03 37 0f 00 00 00
8.171400 1  74c             Tx   d 8 10 10 36 04 34 ff 91 00
8.171700 1  75c             Rx   d 8 30 00 01 00 00 00 00 00
8.173500 1  74c             Tx   d 8 21 00 f7 d9 ff 20 30 74
8.174900 1  74c             Tx   d 8 22 f4 00 90 aa aa aa aa
8.175400 1  75c             Rx   d 8 04 76 04 34 ff 00 00 00
8.177000 1  74c             Tx   d 8 01 37 aa aa aa aa aa aa
8.177400 1  75c             Rx   d 8 01 77 00 00 00 00 00 00
8.179400 1  74c             Tx   d 8 10 0b 34 00 44 80 02 1b
8.179700 1  75c             Rx   d 8 30 00 01 00 00 00 00 00
8.181400 1  74c             Tx   d 8 21 20 00 00 04 94 aa aa
8.181700 1  75c             Rx   d 8 03 74 10 80 00 00 00 00
8.183900 1  74c             Tx   d 8 10 80 36 01 91 20 00 f8
8.184200 1  75c             Rx   d 8 30 00 01 00 00 00 00 00
8.185800 1  74c             Tx   d 8 21 d9 ff 00 d0 09 ff 68
8.187300 1  74c             Tx   d 8 22 08 3b 00 80 00 e2 0f
8.188800 1  74c             Tx   d 8 23 91 00 00 f7 d9 ff 00
8.190300 1  74c             Tx   d 8 24 30 d4 ff 10 ff 91 20
8.191800 1  74c             Tx   d 8 25 00 28 d9 22 00 d0 09
8.193300 1  74c             Tx   d 8 26 2f 68 08 3b 00 80 00
8.194900 1  74c             Tx   d 8 27 e2 0f 91 00 00 27 d9
8.196800 1  74c             Tx   d 8 28 22 00 30 d4 22 10 22
8.198300 1  74c             Tx   d 8 29 91 10 00 30 30 23 d9
8.199900 1  74c             Tx   d 8 2a 33 00 08 54 3f b7 0f
8.201500 1  74c             Tx   d 8 2b 01 fa 91 10 00 30 30
8.203500 1  74c             Tx   d 8 2c f3 d9 33 00 08 74 3f
8.205300 1  74c             Tx   d 8 2d 91 20 00 f8 d9 ff 00
8.206800 1  74c             Tx   d 8 2e d0 09 ff 68 08 3b 00
8.208300 1  74c             Tx   d 8 2f 80 00 e2 0f 91 00 00
8.209800 1  74c             Tx   d 8 20 f7 d9 ff 00 30 d4 ff
8.211300 1  74c             Tx   d 8 21 10 ff 91 20 00 28 d9
8.212800 1  74c             Tx   d 8 22 22 00 d0 aa aa aa aa
8.213600 1  75c             Rx   d 8 04 76 01 91 20 00 00 00
8.215100 1  74c             Tx   d 8 10 80 36 02 09 2f 68 08
8.215500 1  75c             Rx   d 8 30 00 01 00 00 00 00 00
8.217200 1  74c             Tx   d 8 21 3b 00 80 00 e2 0f 91
8.218800 1  74c             Tx   d 8 22 00 00 27 d9 22 00 30
8.220200 1  74c             Tx   d 8 23 d4 22 10 22 91 10 00
8.221700 1  74c             Tx   d 8 24 30 30 23 d9 33 00 08
8.223200 1  74c             Tx   d 8 25 54 3f b7 1f 01 fc 91
8.224700 1  74c             Tx   d 8 26 10 00 30 30 f3 d9 33
8.226200 1  74c             Tx   d 8 27 00 08 74 3f 91 20 00
8.227700 1  74c             Tx   d 8 28 f8 d9 ff 00 d0 09 ff
8.229200 1  74c             Tx   d 8 29 68 08 3b 00 80 00 e2
8.230600 1  74c             Tx   d 8 2a 0f 91 00 00 f7 d9 ff
8.232100 1  74c             Tx   d 8 2b 00 30 d4 ff 10 ff 91
8.233600 1  74c             Tx   d 8 2c 20 00 28 d9 22 00 d0
8.235100 1  74c             Tx   d 8 2d 09 2f 68 08 3b 00 80
8.236600 1  74c             Tx   d 8 2e 00 e2 0f 91 00 00 27
8.238100 1  74c             Tx   d 8 2f d9 22 00 30 d4 22 10
8.239600 1  74c             Tx   d 8 20 22 91 10 00 30 30 23
8.241000 1  74c             Tx   d 8 21 d9 33 00 08 54 3f 91
8.242500 1  74c             Tx   d 8 22 20 00 28 aa aa aa aa
8.243300 1  75c             Rx   d 8 04 76 02 09 2f 00 00 00
8.245100 1  74c             Tx   d 8 10 80 36 03 d9 22 00 d0
8.245500 1  75c             Rx   d 8 30 00 01 00 00 00 00 00
8.247000 1  74c             Tx   d 8 21 09 20 70 08 37 0f 03
8.248500 1  74c             Tx   d 8 22 f6 91 10 00 30 30 f3
8.250000 1  74c             Tx   d 8 23 d9 33 00 08 74 3f 91
8.251400 1  74c             Tx   d 8 24 20 00 f8 d9 ff 00 d0
8.253000 1  74c             Tx   d 8 25 09 ff 68 08 3b 00 80
8.254600 1  74c             Tx   d 8 26 00 e2 0f 91 00 00 f7
8.256600 1  74c             Tx   d 8 27 d9 ff 00 30 d4 ff 10
8.258400 1  74c             Tx   d 8 28 ff 91 20 00 28 d9 22
8.260100 1  74c             Tx   d 8 29 00 d0 09 2f 68 08 3b
8.262100 1  74c             Tx   d 8 2a 00 80 00 e2 0f 91 00
8.263700 1  74c             Tx   d 8 2b 00 27 d9 22 00 30 d4
8.265600 1  74c             Tx   d 8 2c 22 10 22 91 10 00 30
8.267100 1  74c             Tx   d 8 2d 30 23 d9 33 04 08 54
8.268600 1  74c             Tx   d 8 2e 3f 91 10 00 27 d9 22
8.270100 1  74c             Tx   d 8 2f 00 48 54 20 37 0f 10
8.271600 1  74c             Tx   d 8 20 f0 91 10 00 30 30 f3
8.273100 1  74c             Tx   d 8 21 d9 33 04 08 74 3f 91
8.274500 1  74c             Tx   d 8 22 20 00 f8 aa aa aa aa
8.275300 1  75c             Rx   d 8 04 76 03 d9 22 00 00 00
8.277200 1  74c             Tx   d 8 10 80 36 04 d9 ff 00 d0
8.277500 1  75c             Rx   d 8 30 00 01 00 00 00 00 00
8.279100 1  74c             Tx   d 8 21 09 ff 68 08 3b 00 80
8.281000 1  74c             Tx   d 8 22 00 e2 0f 91 00 00 f7
8.282500 1  74c             Tx   d 8 23 d9 ff 00 30 d4 ff 10
8.284000 1  74c             Tx   d 8 24 ff 91 20 00 28 d9 22
8.285500 1  74c             Tx   d 8 25 00 d0 09 2f 68 08 3b
8.287000 1  74c             Tx   d 8 26 00 80 00 e2 0f 91 00
8.288400 1  74c             Tx   d 8 27 00 27 d9 22 00 30 d4
8.289900 1  74c             Tx   d 8 28 22 10 22 91 10 00 30
8.291400 1  74c             Tx   d 8 29 30 23 d9 33 14 08 54
8.292900 1  74c             Tx   d 8 2a 3f 91 20 00 28 d9 22
8.294400 1  74c             Tx   d 8 2b 00 d0 09 20 1e 09 4b
8.295900 1  74c             Tx   d 8 2c 00 71 01 37 0f 10 f0
8.297400 1  74c             Tx   d 8 2d 91 10 00 30 30 f3 d9
8.298800 1  74c             Tx   d 8 2e 33 14 08 74 3f 91 20
8.300300 1  74c             Tx   d 8 2f 00 f8 d9 ff 00 d0 09
8.301800 1  74c             Tx   d 8 20 ff 68 08 3b 00 80 00
8.303300 1  74c             Tx   d 8 21 e2 0f 91 00 00 f7 d9
8.304800 1  74c             Tx   d 8 22 ff 00 30 aa aa aa aa
8.305600 1  75c             Rx   d 8 04 76 04 d9 ff 00 00 00
8.307100 1  74c             Tx   d 8 10 80 36 05 d4 ff 10 ff
8.307400 1  75c             Rx   d 8 30 00 01 00 00 00 00 00
8.309300 1  74c             Tx   d 8 21 91 20 00 28 d9 22 00
8.310800 1  74c             Tx   d 8 22 d0 09 2f 68 08 3b 00
8.312300 1  74c             Tx   d 8 23 80 00 e2 0f 91 00 00
8.314200 1  74c             Tx   d 8 24 27 d9 22 00 30 d4 22
8.315700 1  74c             Tx   d 8 25 10 22 91 10 00 30 30
8.317200 1  74c             Tx   d 8 26 23 d9 33 00 08 54 3f
8.318700 1  74c             Tx   d 8 27 b7 1f 81 f5 91 10 00
8.320200 1  74c             Tx   d 8 28 30 30 f3 d9 33 00 08
8.321800 1  74c             Tx   d 8 29 74 3f 91 20 00 f8 d9
8.323400 1  74c             Tx   d 8 2a ff 00 d0 09 ff 68 08
8.325500 1  74c             Tx   d 8 2b 3b 00 80 00 e2 0f 91
8.327400 1  74c             Tx   d 8 2c 00 00 f7 d9 ff 00 30
8.329400 1  74c             Tx   d 8 2d d4 ff 10 ff 91 20 00
8.330900 1  74c             Tx   d 8 2e 28 d9 22 00 d0 09 2f
8.332500 1  74c             Tx   d 8 2f 68 08 3b 00 80 00 e2
8.333900 1  74c             Tx   d 8 20 0f 91 00 00 27 d9 22
8.335400 1  74c             Tx   d 8 21 00 30 d4 22 10 22 91
8.336900 1  74c             Tx   d 8 22 10 00 30 aa aa aa aa
8.337700 1  75c             Rx   d 8 04 76 05 d4 ff 00 00 00
8.339200 1  74c             Tx   d 8 10 80 36 06 30 23 d9 33
8.339600 1  75c             Rx   d 8 30 00 01 00 00 00 00 00
8.341300 1  74c             Tx   d 8 21 08 08 54 30 91 10 00
8.342800 1  74c             Tx   d 8 22 27 d9 22 00 48 54 2f
8.344400 1  74c             Tx   d 8 23 06 ff 37 f0 10 f0 91
8.345800 1  74c             Tx   d 8 24 10 00 30 30 f3 d9 33
8.347300 1  74c             Tx   d 8 25 08 08 74 3f 91 20 00
8.348800 1  74c             Tx   d 8 26 f8 d9 ff 00 d0 09 ff
8.350300 1  74c             Tx   d 8 27 68 08 3b 00 80 00 e2
8.351800 1  74c             Tx   d 8 28 0f 91 00 00 f7 d9 ff
8.353300 1  74c             Tx   d 8 29 00 30 d4 ff 10 ff 91
8.354700 1  74c             Tx   d 8 2a 20 00 28 d9 22 00 d0
8.356200 1  74c             Tx   d 8 2b 09 2f 68 08 3b 00 80
8.357800 1  74c             Tx   d 8 2c 00 e2 0f 91 00 00 27
8.359200 1  74c             Tx   d 8 2d d9 22 00 30 d4 22 10
8.360700 1  74c             Tx   d 8 2e 22 91 10 00 30 30 23
8.362200 1  74c             Tx   d 8 2f d9 33 3c 08 54 3f b7
8.363700 1  74c             Tx   d 8 20 2f 02 f0 91 10 00 30
8.365200 1  74c             Tx   d 8 21 30 f3 d9 33 3c 08 74
8.366700 1  74c             Tx   d 8 22 3f 91 20 aa aa aa aa
8.367500 1  75c             Rx   d 8 04 76 06 30 23 00 00 00
8.369100 1  74c             Tx   d 8 10 80 36 07 00 f8 d9 ff
8.369400 1  75c             Rx   d 8 30 00 01 00 00 00 00 00
8.371100 1  74c             Tx   d 8 21 00 d0 c8 b4 91 20 00
8.372600 1  74c             Tx   d 8 22 f8 d9 ff 00 d0 09 f4
8.374100 1  74c             Tx   d 8 23 55 08 91 20 00 f8 d9
8.375600 1  74c             Tx   d 8 24 ff 00 d0 09 f5 56 08
8.377100 1  74c             Tx   d 8 25 6d 01 c1 30 91 20 00
8.378600 1  74c             Tx   d 8 26 f8 d9 ff 00 d0 c8 bf
8.380700 1  74c             Tx   d 8 27 c8 22 91 20 00 f8 d9
8.382800 1  74c             Tx   d 8 28 ff 00 d0 c8 bf 08 cf
8.384600 1  74c             Tx   d 8 29 82 10 0f f0 10 00 89
8.386600 1  74c             Tx   d 8 2a 20 04 09 91 20 00 f8
8.388500 1  74c             Tx   d 8 2b d9 ff 00 d0 09 ff 68
8.389900 1  74c             Tx   d 8 2c 08 3b 00 80 00 e2 0f
8.391400 1  74c             Tx   d 8 2d 91 00 00 f7 d9 ff 00
8.392900 1  74c             Tx   d 8 2e 30 d4 ff 10 ff 91 20
8.394400 1  74c             Tx   d 8 2f 00 28 d9 22 00 d0 09
8.395900 1  74c             Tx   d 8 20 2f 68 08 3b 00 80 00
8.397400 1  74c             Tx   d 8 21 e2 0f 91 00 00 27 d9
8.398800 1  74c             Tx   d 8 22 22 00 30 aa aa aa aa
8.399600 1  75c             Rx   d 8 04 76 07 00 f8 00 00 00
8.401200 1  74c             Tx   d 8 10 80 36 08 d4 22 10 22
8.401500 1  75c             Rx   d 8 30 00 01 00 00 00 00 00
8.403300 1  74c             Tx   d 8 21 91 10 00 30 30 23 d9
8.404800 1  74c             Tx   d 8 22 33 38 18 54 3f b7 2f
8.406300 1  74c             Tx   d 8 23 02 f0 91 10 00 30 30
8.407700 1  74c             Tx   d 8 24 f3 d9 33 38 18 74 3f
8.409300 1  74c             Tx   d 8 25 91 20 00 f8 d9 ff 00
8.410800 1  74c             Tx   d 8 26 d0 09 ff 68 08 3b 00
8.412300 1  74c             Tx   d 8 27 80 00 e2 0f 91 00 00
8.413700 1  74c             Tx   d 8 28 f7 d9 ff 00 30 d4 ff
8.415200 1  74c             Tx   d 8 29 10 ff 91 20 00 28 d9
8.416700 1  74c             Tx   d 8 2a 22 00 d0 09 2f 68 08
8.418200 1  74c             Tx   d 8 2b 3b 00 80 00 e2 0f 91
8.419700 1  74c             Tx   d 8 2c 00 00 27 d9 22 00 30
8.421100 1  74c             Tx   d 8 2d d4 22 10 22 91 10 00
8.422600 1  74c             Tx   d 8 2e 30 30 23 d9 33 3c 18
8.424100 1  74c             Tx   d 8 2f 54 3f b7 2f 02 f0 91
8.425600 1  74c             Tx   d 8 20 10 00 30 30 f3 d9 33
8.427100 1  74c             Tx   d 8 21 3c 18 74 3f 91 20 00
8.428600 1  74c             Tx   d 8 22 f8 d9 ff aa aa aa aa
8.429400 1  75c             Rx   d 8 04 76 08 d4 22 00 00 00
8.431000 1  74c             Tx   d 8 10 80 36 09 00 d0 09 ff
8.431300 1  75c             Rx   d 8 30 00 01 00 00 00 00 00
8.433000 1  74c             Tx   d 8 21 68 08 3b 00 80 00 e2
8.434600 1  74c             Tx   d 8 22 0f 91 20 00 f8 d9 ff
8.436000 1  74c             Tx   d 8 23 00 d0 c8 9f 10 ff 91
8.437700 1  74c             Tx   d 8 24 10 00 30 30 f3 d9 34
8.439300 1  74c             Tx   d 8 25 00 08 91 20 00 f8 d9
8.440900 1  74c             Tx   d 8 26 ff 00 d0 09 f4 29 08
8.442800 1  74c             Tx   d 8 27 82 25 82 16 82 07 6d
8.444300 1  74c             Tx   d 8 28 01 fe 30 91 20 00 f8
8.445800 1  74c             Tx   d 8 29 d9 ff 00 d0 c8 94 91
8.447700 1  74c             Tx   d 8 2a 20 00 f8 d9 ff 00 d0
8.449800 1  74c             Tx   d 8 2b 09 f4 68 08 91 20 00
8.451700 1  74c             Tx   d 8 2c f8 d9 ff 00 d0 09 f5
8.453200 1  74c             Tx   d 8 2d 29 08 6d 01 da 30 82
8.454700 1  74c             Tx   d 8 2e 00 91 20 00 f8 d9 ff
8.456100 1  74c             Tx   d 8 2f 00 d0 09 ff c4 08 14
8.457600 1  74c             Tx   d 8 20 21 37 0f 68 f0 37 f1
8.459100 1  74c             Tx   d 8 21 08 f0 34 2f 0c 21 37
8.460600 1  74c             Tx   d 8 22 0f 81 f1 aa aa aa aa
8.461400 1  75c             Rx   d 8 04 76 09 00 d0 00 00 00
8.463100 1  74c             Tx   d 8 10 28 36 0a 2c 21 0c 23
8.463400 1  75c             Rx   d 8 30 00 01 00 00 00 00 00
8.465100 1  74c             Tx   d 8 21 96 02 2c 23 0c 21 96
8.466500 1  74c             Tx   d 8 22 04 2c 21 6d ff 32 fc
8.468100 1  74c             Tx   d 8 23 6d ff 90 fc 91 10 00
8.469500 1  74c             Tx   d 8 24 f7 d9 ff 00 48 54 f4
8.471000 1  74c             Tx   d 8 25 6d ff e9 fc 00 90 aa
8.471500 1  75c             Rx   d 8 04 76 0a 2c 21 00 00 00
8.473100 1  74c             Tx   d 8 01 37 aa aa aa aa aa aa
8.473500 1  75c             Rx   d 8 01 77 00 00 00 00 00 00
8.475500 1  74c             Tx   d 8 10 0b 34 00 44 80 02 1f
8.475800 1  75c             Rx   d 8 30 00 01 00 00 00 00 00
8.477500 1  74c             Tx   d 8 21 c0 00 00 00 2e aa aa
8.477900 1  75c             Rx   d 8 03 74 10 80 00 00 00 00
8.480000 1  74c             Tx   d 8 10 30 36 01 91 00 00 f7
8.480300 1  75c             Rx   d 8 30 00 01 00 00 00 00 00
8.481900 1  74c             Tx   d 8 21 d9 ff 20 40 14 ff 6e
8.483400 1  74c             Tx   d 8 22 11 7b 40 55 f1 91 10
8.484900 1  74c             Tx   d 8 23 01 ff 59 ff b0 08 6d
8.486400 1  74c             Tx   d 8 24 00 44 01 6d 00 12 00
8.487900 1  74c             Tx   d 8 25 7b 80 aa f2 91 10 01
8.489400 1  74c             Tx   d 8 26 ff 59 ff b0 08 00 90
8.489900 1  75c             Rx   d 8 04 76 01 91 00 00 00 00
8.491500 1  74c             Tx   d 8 01 37 aa aa aa aa aa aa
8.491800 1  75c             Rx   d 8 01 77 00 00 00 00 00 00
8.493800 1  74c             Tx   d 8 10 0b 34 00 44 80 02 20
8.494100 1  75c             Rx   d 8 30 00 01 00 00 00 00 00
8.495800 1  74c             Tx   d 8 21 00 00 00 02 48 aa aa
8.496200 1  75c             Rx   d 8 03 74 10 80 00 00 00 00
8.498700 1  74c             Tx   d 8 10 80 36 01 82 00 3c 42
8.499100 1  75c             Rx   d 8 30 00 01 00 00 00 00 00
8.500800 1  74c             Tx   d 8 21 53 40 20 f0 91 00 00
8.502300 1  74c             Tx   d 8 22 f7 d9 ff c0 e3 10 ff
8.503800 1  74c             Tx   d 8 23 53 80 20 f0 91 00 00
8.505300 1  74c             Tx   d 8 24 27 d9 22 00 60 10 22
8.506700 1  74c             Tx   d 8 25 54 2f 74 ff 53 40 20
8.508200 1  74c             Tx   d 8 26 f0 91 00 00 f7 d9 ff
8.510200 1  74c             Tx   d 8 27 e0 d3 10 f2 53 80 20
8.511800 1  74c             Tx   d 8 28 f0 91 00 00 f7 d9 ff
8.513300 1  74c             Tx   d 8 29 00 60 10 ff 48 1f 74
8.515200 1  74c             Tx   d 8 2a 2f 53 40 20 f0 91 00
8.516700 1  74c             Tx   d 8 2b 00 f7 d9 ff c0 d3 10
8.518200 1  74c             Tx   d 8 2c ff 53 80 20 f0 91 00
8.519600 1  74c             Tx   d 8 2d 00 27 d9 22 20 50 10
8.521100 1  74c             Tx   d 8 2e 22 54 2f 74 ff 53 40
8.522700 1  74c             Tx   d 8 2f 20 f0 91 00 00 f7 d9
8.524100 1  74c             Tx   d 8 20 ff e0 c3 10 f2 53 80
8.525600 1  74c             Tx   d 8 21 20 f0 91 00 00 f7 d9
8.527100 1  74c             Tx   d 8 22 ff 20 50 aa aa aa aa
8.527900 1  75c             Rx   d 8 04 76 01 82 00 00 00 00
8.530000 1  74c             Tx   d 8 10 80 36 02 10 ff 48 1f
8.530400 1  75c             Rx   d 8 30 00 01 00 00 00 00 00
8.532000 1  74c             Tx   d 8 21 74 2f c2 10 bf 30 bf
8.533500 1  74c             Tx   d 8 22 ff 91 00 00 f7 d9 ff
8.535000 1  74c             Tx   d 8 23 00 70 14 ff ee 1f 91
8.536500 1  74c             Tx   d 8 24 00 00 f7 d9 ff c0 e3
8.538000 1  74c             Tx   d 8 25 54 ff 91 00 00 f7 d9
8.539500 1  74c             Tx   d 8 26 ff c0 d3 54 f0 91 10
8.541000 1  74c             Tx   d 8 27 01 ff 19 f1 84 18 37
8.542500 1  74c             Tx   d 8 28 01 10 00 91 10 01 ff
8.544000 1  74c             Tx   d 8 29 59 f0 84 18 91 10 01
8.545500 1  74c             Tx   d 8 2a ff 19 f0 88 18 37 f0
8.546900 1  74c             Tx   d 8 2b 10 f0 91 10 01 ff 59
8.548400 1  74c             Tx   d 8 2c ff 88 18 91 00 00 f7
8.549900 1  74c             Tx   d 8 2d d9 ff 00 70 08 1f ee
8.551300 1  74c             Tx   d 8 2e 1f 91 00 00 f7 d9 ff
8.552900 1  74c             Tx   d 8 2f c0 e3 48 10 91 00 00
8.554400 1  74c             Tx   d 8 20 f7 d9 ff c0 d3 48 1f
8.555800 1  74c             Tx   d 8 21 91 10 01 ff 19 f1 84
8.557300 1  74c             Tx   d 8 22 38 37 f1 aa aa aa aa
8.558100 1  75c             Rx   d 8 04 76 02 10 ff 00 00 00
8.559900 1  74c             Tx   d 8 10 80 36 03 10 f0 91 10
8.560200 1  75c             Rx   d 8 30 00 01 00 00 00 00 00
8.561800 1  74c             Tx   d 8 21 01 ff 59 ff 84 38 91
8.563300 1  74c             Tx   d 8 22 10 01 ff 19 ff 88 38
8.564700 1  74c             Tx   d 8 23 37 0f 10 f0 91 10 01
8.566300 1  74c             Tx   d 8 24 ff 59 ff 88 38 91 00
8.567800 1  74c             Tx   d 8 25 00 f7 d9 ff 00 70 08
8.569300 1  74c             Tx   d 8 26 2f ee 1f 91 00 00 f7
8.570700 1  74c             Tx   d 8 27 d9 ff c0 e3 48 20 91
8.572300 1  74c             Tx   d 8 28 00 00 f7 d9 ff c0 d3
8.573700 1  74c             Tx   d 8 29 48 2f 91 10 01 ff 19
8.575200 1  74c             Tx   d 8 2a f1 84 58 37 f1 10 f0
8.576700 1  74c             Tx   d 8 2b 91 10 01 ff 59 ff 84
8.578300 1  74c             Tx   d 8 2c 58 91 10 01 ff 19 ff
8.580200 1  74c             Tx   d 8 2d 88 58 37 0f 10 f0 91
8.581600 1  74c             Tx   d 8 2e 10 01 ff 59 ff 88 58
8.583100 1  74c             Tx   d 8 2f 91 00 00 f7 d9 ff 20
8.584600 1  74c             Tx   d 8 20 60 14 ff ee 1f 91 00
8.586100 1  74c             Tx   d 8 21 00 f7 d9 ff e0 d3 54
8.587600 1  74c             Tx   d 8 22 ff 91 00 aa aa aa aa
8.588400 1  75c             Rx   d 8 04 76 03 10 f0 00 00 00
8.590000 1  74c             Tx   d 8 10 80 36 04 00 f7 d9 ff
8.590300 1  75c             Rx   d 8 30 00 01 00 00 00 00 00
8.592000 1  74c             Tx   d 8 21 e0 c3 54 f0 91 10 01
8.593600 1  74c             Tx   d 8 22 ff 19 f1 84 28 37 01
8.595200 1  74c             Tx   d 8 23 10 00 91 10 01 ff 59
8.597000 1  74c             Tx   d 8 24 f0 84 28 91 10 01 ff
8.598500 1  74c             Tx   d 8 25 19 f0 88 28 37 f0 10
8.600000 1  74c             Tx   d 8 26 f0 91 10 01 ff 59 ff
8.601500 1  74c             Tx   d 8 27 88 28 91 00 00 f7 d9
8.603000 1  74c             Tx   d 8 28 ff 20 60 08 1f ee 1f
8.604500 1  74c             Tx   d 8 29 91 00 00 f7 d9 ff e0
8.605900 1  74c             Tx   d 8 2a d3 48 10 91 00 00 f7
8.607500 1  74c             Tx   d 8 2b d9 ff e0 c3 48 1f 91
8.608900 1  74c             Tx   d 8 2c 10 01 ff 19 f1 84 48
8.610400 1  74c             Tx   d 8 2d 37 f1 10 f0 91 10 01
8.611900 1  74c             Tx   d 8 2e ff 59 ff 84 48 91 10
8.613400 1  74c             Tx   d 8 2f 01 ff 19 ff 88 48 37
8.614900 1  74c             Tx   d 8 20 0f 10 f0 91 10 01 ff
8.616400 1  74c             Tx   d 8 21 59 ff 88 48 91 00 00
8.617800 1  74c             Tx   d 8 22 f7 d9 ff aa aa aa aa
8.618700 1  75c             Rx   d 8 04 76 04 00 f7 00 00 00
8.620400 1  74c             Tx   d 8 10 52 36 05 20 60 08 2f
8.620700 1  75c             Rx   d 8 30 00 01 00 00 00 00 00
8.622300 1  74c             Tx   d 8 21 ee 1f 91 00 00 f7 d9
8.623900 1  74c             Tx   d 8 22 ff e0 d3 48 20 91 00
8.625300 1  74c             Tx   d 8 23 00 f7 d9 ff e0 c3 48
8.626800 1  74c             Tx   d 8 24 2f 91 10 01 ff 19 f1
8.628300 1  74c             Tx   d 8 25 84 68 37 f1 10 f0 91
8.630300 1  74c             Tx   d 8 26 10 01 ff 59 ff 84 68
8.632200 1  74c             Tx   d 8 27 91 10 01 ff 19 ff 88
8.633700 1  74c             Tx   d 8 28 68 37 0f 10 f0 91 10
8.635700 1  74c             Tx   d 8 29 01 ff 59 ff 88 68 91
8.637200 1  74c             Tx   d 8 2a 00 00 f7 d9 ff 20 40
8.638700 1  74c             Tx   d 8 2b da 00 34 ff 00 90 aa
8.639400 1  75c             Rx   d 8 04 76 05 20 60 00 00 00
8.640800 1  74c             Tx   d 8 01 37 aa aa aa aa aa aa
8.641200 1  75c             Rx   d 8 01 77 00 00 00 00 00 00
8.643100 1  74c             Tx   d 8 10 0b 34 00 44 80 02 22
8.643400 1  75c             Rx   d 8 30 00 01 00 00 00 00 00
8.645200 1  74c             Tx   d 8 21 60 00 00 04 5a aa aa
8.645600 1  75c             Rx   d 8 03 74 10 80 00 00 00 00
8.647700 1  74c             Tx   d 8 10 80 36 01 91 00 00 f7
8.648000 1  75c             Rx   d 8 30 00 01 00 00 00 00 00
8.649600 1  74c             Tx   d 8 21 d9 ff 00 40 14 ff df
8.651000 1  74c             Tx   d 8 22 1f 27 82 91 00 00 f7
8.652500 1  74c             Tx   d 8 23 d9 ff 00 40 da 00 34
8.654000 1  74c             Tx   d 8 24 ff 91 00 00 f7 d9 ff
8.655500 1  74c             Tx   d 8 25 20 30 54 ff 8f ff 1f
8.657000 1  74c             Tx   d 8 26 50 91 10 00 f7 d9 ff
8.658500 1  74c             Tx   d 8 27 00 78 54 f0 c2 10 91
8.660000 1  74c             Tx   d 8 28 00 00 f7 d9 ff 20 30
8.661500 1  74c             Tx   d 8 29 54 f1 91 10 00 f7 d9
8.663000 1  74c             Tx   d 8 2a ff 00 78 54 f2 a2 21
8.664500 1  74c             Tx   d 8 2b c2 f1 91 10 00 f7 d9
8.666000 1  74c             Tx   d 8 2c ff 00 78 54 f2 0b 25
8.667500 1  74c             Tx   d 8 2d 80 20 c2 f2 91 10 00
8.668900 1  74c             Tx   d 8 2e f7 d9 ff 00 78 54 f3
8.670500 1  74c             Tx   d 8 2f 1a 35 92 16 82 07 1d
8.671900 1  74c             Tx   d 8 20 00 92 00 53 87 20 30
8.673400 1  74c             Tx   d 8 21 91 00 00 f7 d9 ff 00
8.674900 1  74c             Tx   d 8 22 60 01 f3 aa aa aa aa
8.675700 1  75c             Rx   d 8 04 76 01 91 00 00 00 00
8.677600 1  74c             Tx   d 8 10 80 36 02 00 f6 54 f3
8.677900 1  75c             Rx   d 8 30 00 01 00 00 00 00 00
8.679900 1  74c             Tx   d 8 21 ff 33 1c 80 53 87 20
8.681400 1  74c             Tx   d 8 22 30 91 00 00 f7 d9 ff
8.682900 1  74c             Tx   d 8 23 20 50 01 f3 00 f6 54
8.684800 1  74c             Tx   d 8 24 f4 91 10 00 f7 d9 ff
8.686300 1  74c             Tx   d 8 25 00 48 54 f3 c2 e3 3f
8.687800 1  74c             Tx   d 8 26 34 0b 80 91 00 00 f7
8.689300 1  74c             Tx   d 8 27 d9 ff 00 70 01 f7 00
8.690800 1  74c             Tx   d 8 28 f6 82 13 34 f3 3c 29
8.692300 1  74c             Tx   d 8 29 53 87 20 30 91 00 00
8.693700 1  74c             Tx   d 8 2a f7 d9 ff 00 60 01 f3
8.695400 1  74c             Tx   d 8 2b 00 f6 54 f3 9a e5 3f
8.697300 1  74c             Tx   d 8 2c f3 16 80 53 87 20 f0
8.698800 1  74c             Tx   d 8 2d 91 00 00 f7 d9 ff 20
8.700200 1  74c             Tx   d 8 2e 50 10 ff 54 f3 9a 25
8.701700 1  74c             Tx   d 8 2f 3f 3f 0b 80 91 00 00
8.703200 1  74c             Tx   d 8 20 f7 d9 ff 00 70 01 f7
8.704700 1  74c             Tx   d 8 21 00 f6 da 02 34 ff 3c
8.706200 1  74c             Tx   d 8 22 09 91 00 aa aa aa aa
8.707000 1  75c             Rx   d 8 04 76 02 00 f6 00 00 00
8.708700 1  74c             Tx   d 8 10 80 36 03 00 f7 d9 ff
8.709100 1  75c             Rx   d 8 30 00 01 00 00 00 00 00
8.710700 1  74c             Tx   d 8 21 00 70 01 f7 00 f6 da
8.712200 1  74c             Tx   d 8 22 00 34 ff 53 87 20 f0
8.713700 1  74c             Tx   d 8 23 91 00 00 f7 d9 ff 00
8.715200 1  74c             Tx   d 8 24 60 10 ff 48 1f 3f f0
8.716700 1  74c             Tx   d 8 25 15 80 53 87 20 f0 91
8.718200 1  74c             Tx   d 8 26 00 00 f7 d9 ff 20 50
8.719600 1  74c             Tx   d 8 27 10 ff 48 1f 3f 1f 0b
8.721100 1  74c             Tx   d 8 28 80 91 00 00 f7 d9 ff
8.722600 1  74c             Tx   d 8 29 20 60 01 f7 00 f6 da
8.724100 1  74c             Tx   d 8 2a 01 34 ff 3c 26 53 87
8.725600 1  74c             Tx   d 8 2b 20 f0 91 00 00 f7 d9
8.727100 1  74c             Tx   d 8 2c ff 00 60 10 ff 48 1f
8.728600 1  74c             Tx   d 8 2d 3f 2f 15 80 53 87 20
8.730100 1  74c             Tx   d 8 2e f0 91 00 00 f7 d9 ff
